  can0  706   [1]  05
  can0  080   [0] 
  can0  293   [8]  A0 01 00 00 F2 CA 00 00
  can0  292   [8]  C0 01 00 00 DA CA 00 00
  can0  294   [8]  C0 01 00 00 3C CB 00 00
  can0  295   [8]  A0 01 00 00 DA CA 00 00
  can0  296   [8]  C0 01 00 00 0C CB 00 00
  can0  297   [8]  C0 01 00 00 94 CA 00 00
  can0  704   [1]  05
  can0  702   [1]  05
  can0  705   [1]  05
  can0  703   [1]  05
  can0  707   [1]  05
  can0  706   [1]  05
  can0  080   [0] 
  can0  295   [8]  A0 01 00 00 DA CA 00 00
  can0  292   [8]  A0 01 00 00 C4 CA 00 00
  can0  293   [8]  C0 01 00 00 F2 CA 00 00
  can0  294   [8]  C0 01 00 00 3C CB 00 00
  can0  296   [8]  A0 01 00 00 0C CB 00 00
  can0  297   [8]  C0 01 00 00 94 CA 00 00
  can0  704   [1]  05
  can0  702   [1]  05
  can0  705   [1]  05
  can0  703   [1]  05
  can0  195   [8]  C0 80 62 19 64 19 06 26
  can0  707   [1]  05
  can0  706   [1]  05
  can0  080   [0] 
  can0  296   [8]  C0 01 00 00 0C CB 00 00
  can0  292   [8]  C0 01 00 00 C4 CA 00 00
  can0  293   [8]  C0 01 00 00 F2 CA 00 00
  can0  294   [8]  E0 01 00 00 3C CB 00 00
  can0  295   [8]  A0 01 00 00 DA CA 00 00
  can0  297   [8]  C0 01 00 00 94 CA 00 00
  can0  704   [1]  05
  can0  702   [1]  05
  can0  705   [1]  05
  can0  703   [1]  05
  can0  707   [1]  05
  can0  706   [1]  05
  can0  080   [0] 
  can0  293   [8]  A0 01 00 00 F2 CA 00 00
  can0  292   [8]  C0 01 00 00 C4 CA 00 00
  can0  294   [8]  E0 01 00 00 3C CB 00 00
  can0  295   [8]  A0 01 00 00 DA CA 00 00
  can0  296   [8]  C0 01 00 00 0C CB 00 00
  can0  297   [8]  C0 01 00 00 94 CA 00 00
  can0  704   [1]  05
  can0  702   [1]  05
  can0  705   [1]  05
  can0  703   [1]  05
  can0  707   [1]  05
  can0  192   [8]  C0 80 62 19 64 19 06 26
  can0  706   [1]  05
  can0  080   [0] 
  can0  296   [8]  A0 01 00 00 0C CB 00 00
  can0  292   [8]  C0 01 00 00 C4 CA 00 00
  can0  293   [8]  A0 01 00 00 F2 CA 00 00
  can0  294   [8]  E0 01 00 00 3C CB 00 00
  can0  295   [8]  A0 01 00 00 DA CA 00 00
  can0  297   [8]  C0 01 00 00 94 CA 00 00
  can0  704   [1]  05
  can0  702   [1]  05
  can0  705   [1]  05
  can0  703   [1]  05
  can0  707   [1]  05
  can0  706   [1]  05
  can0  080   [0] 
  can0  292   [8]  C0 01 00 00 C4 CA 00 00
  can0  293   [8]  A0 01 00 00 F2 CA 00 00
  can0  294   [8]  E0 01 00 00 3C CB 00 00
  can0  295   [8]  A0 01 00 00 DA CA 00 00
  can0  296   [8]  C0 01 00 00 0C CB 00 00
  can0  297   [8]  C0 01 00 00 94 CA 00 00
  can0  704   [1]  05
  can0  702   [1]  05
  can0  705   [1]  05
  can0  703   [1]  05
  can0  181   [8]  00 80 10 27 10 27 10 27
  can0  281   [8]  00 00 00 00 00 00 00 00
  can0  196   [8]  C0 80 62 19 64 19 06 26
  can0  707   [1]  05
  can0  706   [1]  05
  can0  080   [0] 
  can0  293   [8]  A0 01 00 00 F2 CA 00 00
  can0  292   [8]  C0 01 00 00 DA CA 00 00
  can0  294   [8]  A0 01 00 00 3C CB 00 00
  can0  295   [8]  A0 01 00 00 DA CA 00 00
  can0  296   [8]  C0 01 00 00 0C CB 00 00
  can0  297   [8]  C0 01 00 00 94 CA 00 00
  can0  704   [1]  05
  can0  702   [1]  05
  can0  705   [1]  05
  can0  703   [1]  05
  can0  193   [8]  C0 80 62 19 64 19 06 26
  can0  194   [8]  C0 80 62 19 64 19 06 26
  can0  707   [1]  05
  can0  706   [1]  05
  can0  080   [0] 
  can0  297   [8]  A0 01 00 00 94 CA 00 00
  can0  292   [8]  C0 01 00 00 DA CA 00 00
  can0  293   [8]  A0 01 00 00 F2 CA 00 00
  can0  294   [8]  C0 01 00 00 3C CB 00 00
  can0  295   [8]  A0 01 00 00 DA CA 00 00
  can0  296   [8]  C0 01 00 00 0C CB 00 00
  can0  704   [1]  05
  can0  702   [1]  05
  can0  705   [1]  05
  can0  703   [1]  05
  can0  707   [1]  05
  can0  706   [1]  05
  can0  080   [0] 
  can0  294   [8]  C0 01 00 00 52 CB 00 00
  can0  292   [8]  C0 01 00 00 DA CA 00 00
  can0  293   [8]  C0 01 00 00 F2 CA 00 00
  can0  295   [8]  A0 01 00 00 DA CA 00 00
  can0  296   [8]  A0 01 00 00 0C CB 00 00
  can0  297   [8]  A0 01 00 00 94 CA 00 00
  can0  704   [1]  05
  can0  702   [1]  05
  can0  705   [1]  05
  can0  703   [1]  05
  can0  197   [8]  C0 80 62 19 64 19 06 26
  can0  707   [1]  05
  can0  706   [1]  05
  can0  080   [0] 
  can0  293   [8]  C0 01 00 00 F2 CA 00 00
  can0  292   [8]  C0 01 00 00 DA CA 00 00
  can0  294   [8]  C0 01 00 00 52 CB 00 00
  can0  295   [8]  A0 01 00 00 DA CA 00 00
  can0  296   [8]  C0 01 00 00 0C CB 00 00
  can0  297   [8]  C0 01 00 00 94 CA 00 00
  can0  704   [1]  05
  can0  702   [1]  05
  can0  705   [1]  05
  can0  703   [1]  05
  can0  707   [1]  05
  can0  706   [1]  05
  can0  080   [0] 
  can0  292   [8]  C0 01 00 00 DA CA 00 00
  can0  293   [8]  A0 01 00 00 F2 CA 00 00
  can0  294   [8]  E0 01 00 00 52 CB 00 00
  can0  295   [8]  A0 01 00 00 DA CA 00 00
  can0  296   [8]  A0 01 00 00 0C CB 00 00
  can0  297   [8]  C0 01 00 00 94 CA 00 00
  can0  704   [1]  05
  can0  702   [1]  05
  can0  705   [1]  05
  can0  703   [1]  05
  can0  707   [1]  05
  can0  706   [1]  05
  can0  080   [0] 
  can0  295   [8]  A0 01 00 00 DA CA 00 00
  can0  292   [8]  C0 01 00 00 C4 CA 00 00
  can0  293   [8]  A0 01 00 00 F2 CA 00 00
  can0  294   [8]  C0 01 00 00 52 CB 00 00
  can0  296   [8]  E0 01 00 00 0C CB 00 00
  can0  297   [8]  C0 01 00 00 94 CA 00 00
  can0  704   [1]  05
  can0  702   [1]  05
  can0  705   [1]  05
  can0  703   [1]  05
  can0  195   [8]  C0 80 62 19 64 19 06 26
  can0  707   [1]  05
  can0  706   [1]  05
  can0  080   [0] 
  can0  295   [8]  A0 01 00 00 DA CA 00 00
  can0  292   [8]  C0 01 00 00 C4 CA 00 00
  can0  293   [8]  A0 01 00 00 F2 CA 00 00
  can0  294   [8]  E0 01 00 00 52 CB 00 00
  can0  296   [8]  C0 01 00 00 F2 CA 00 00
  can0  297   [8]  C0 01 00 00 94 CA 00 00
  can0  704   [1]  05
  can0  702   [1]  05
  can0  705   [1]  05
  can0  703   [1]  05
  can0  707   [1]  05
  can0  706   [1]  05
  can0  080   [0] 
  can0  292   [8]  C0 01 00 00 C4 CA 00 00
  can0  293   [8]  A0 01 00 00 F2 CA 00 00
  can0  294   [8]  C0 01 00 00 52 CB 00 00
  can0  295   [8]  A0 01 00 00 DA CA 00 00
  can0  296   [8]  C0 01 00 00 F2 CA 00 00
  can0  297   [8]  C0 01 00 00 94 CA 00 00
  can0  704   [1]  05
  can0  702   [1]  05
  can0  705   [1]  05
  can0  703   [1]  05
  can0  707   [1]  05
  can0  192   [8]  C0 80 62 19 64 19 06 26
  can0  706   [1]  05
  can0  080   [0] 
  can0  294   [8]  C0 01 00 00 52 CB 00 00
  can0  292   [8]  C0 01 00 00 C4 CA 00 00
  can0  293   [8]  A0 01 00 00 F2 CA 00 00
  can0  295   [8]  A0 01 00 00 DA CA 00 00
  can0  296   [8]  C0 01 00 00 F2 CA 00 00
  can0  297   [8]  C0 01 00 00 94 CA 00 00
  can0  704   [1]  05
  can0  702   [1]  05
  can0  705   [1]  05
  can0  703   [1]  05
  can0  707   [1]  05
  can0  706   [1]  05
  can0  080   [0] 
  can0  292   [8]  C0 01 00 00 C4 CA 00 00
  can0  293   [8]  A0 01 00 00 F2 CA 00 00
  can0  294   [8]  C0 01 00 00 52 CB 00 00
  can0  295   [8]  A0 01 00 00 DA CA 00 00
  can0  296   [8]  C0 01 00 00 F2 CA 00 00
  can0  297   [8]  C0 01 00 00 94 CA 00 00
  can0  704   [1]  05
  can0  702   [1]  05
  can0  705   [1]  05
  can0  703   [1]  05
  can0  181   [8]  00 80 10 27 10 27 10 27
  can0  281   [8]  00 00 00 00 00 00 00 00
  can0  196   [8]  C0 80 62 19 64 19 06 26
  can0  707   [1]  05
  can0  706   [1]  05
  can0  080   [0] 
  can0  294   [8]  A0 01 00 00 52 CB 00 00
  can0  292   [8]  C0 01 00 00 C4 CA 00 00
  can0  293   [8]  C0 01 00 00 F2 CA 00 00
  can0  295   [8]  A0 01 00 00 DA CA 00 00
  can0  296   [8]  C0 01 00 00 F2 CA 00 00
  can0  297   [8]  C0 01 00 00 94 CA 00 00
  can0  704   [1]  05
  can0  702   [1]  05
  can0  705   [1]  05
  can0  703   [1]  05
  can0  193   [8]  C0 80 62 19 64 19 06 26
  can0  194   [8]  C0 80 62 19 64 19 06 26
  can0  707   [1]  05
  can0  706   [1]  05
  can0  080   [0] 
  can0  296   [8]  C0 01 00 00 0C CB 00 00
  can0  292   [8]  C0 01 00 00 C4 CA 00 00
  can0  293   [8]  C0 01 00 00 F2 CA 00 00
  can0  294   [8]  C0 01 00 00 52 CB 00 00
  can0  295   [8]  A0 01 00 00 DA CA 00 00
  can0  297   [8]  C0 01 00 00 94 CA 00 00
  can0  704   [1]  05
  can0  702   [1]  05
  can0  705   [1]  05
  can0  703   [1]  05
  can0  707   [1]  05
  can0  706   [1]  05
  can0  080   [0] 
  can0  295   [8]  A0 01 00 00 DA CA 00 00
  can0  292   [8]  C0 01 00 00 C4 CA 00 00
  can0  293   [8]  A0 01 00 00 F2 CA 00 00
  can0  294   [8]  E0 01 00 00 52 CB 00 00
  can0  296   [8]  C0 01 00 00 0C CB 00 00
  can0  297   [8]  C0 01 00 00 94 CA 00 00
  can0  704   [1]  05
  can0  702   [1]  05
  can0  705   [1]  05
  can0  703   [1]  05
  can0  197   [8]  C0 80 62 19 64 19 06 26
  can0  707   [1]  05
  can0  706   [1]  05
  can0  080   [0] 
  can0  294   [8]  C0 01 00 00 52 CB 00 00
  can0  292   [8]  A0 01 00 00 C4 CA 00 00
  can0  293   [8]  A0 01 00 00 F2 CA 00 00
  can0  295   [8]  A0 01 00 00 DA CA 00 00
  can0  296   [8]  C0 01 00 00 0C CB 00 00
  can0  297   [8]  C0 01 00 00 94 CA 00 00
  can0  704   [1]  05
  can0  702   [1]  05
  can0  705   [1]  05
  can0  703   [1]  05
  can0  707   [1]  05
  can0  706   [1]  05
  can0  080   [0] 
  can0  292   [8]  C0 01 00 00 C4 CA 00 00
  can0  293   [8]  C0 01 00 00 F2 CA 00 00
  can0  294   [8]  C0 01 00 00 52 CB 00 00
  can0  295   [8]  A0 01 00 00 DA CA 00 00
  can0  296   [8]  C0 01 00 00 0C CB 00 00
  can0  297   [8]  C0 01 00 00 94 CA 00 00
  can0  704   [1]  05
  can0  702   [1]  05
  can0  705   [1]  05
  can0  703   [1]  05
  can0  707   [1]  05
  can0  603   [8]  2B 01 60 01 00 03 00 00
  can0  583   [8]  60 01 60 01 00 00 00 00
  can0  193   [8]  40 80 62 19 64 19 06 26
  can0  706   [1]  05
  can0  080   [0] 
  can0  293   [8]  C0 01 00 00 F2 CA 00 00
  can0  292   [8]  C0 01 00 00 C4 CA 00 00
  can0  294   [8]  C0 01 00 00 52 CB 00 00
  can0  295   [8]  A0 01 00 00 DA CA 00 00
  can0  296   [8]  C0 01 00 00 0C CB 00 00
  can0  297   [8]  C0 01 00 00 94 CA 00 00
  can0  704   [1]  05
  can0  702   [1]  05
  can0  705   [1]  05
  can0  703   [1]  05
  can0  195   [8]  C0 80 62 19 64 19 06 26
  can0  707   [1]  05
  can0  706   [1]  05
  can0  080   [0] 
  can0  293   [8]  A0 01 00 00 F2 CA 00 00
  can0  292   [8]  A0 01 00 00 C4 CA 00 00
  can0  294   [8]  C0 01 00 00 52 CB 00 00
  can0  295   [8]  A0 01 00 00 DA CA 00 00
  can0  296   [8]  C0 01 00 00 F2 CA 00 00
  can0  297   [8]  C0 01 00 00 94 CA 00 00
  can0  704   [1]  05
  can0  702   [1]  05
  can0  705   [1]  05
  can0  703   [1]  05
  can0  707   [1]  05
  can0  706   [1]  05
  can0  080   [0] 
  can0  294   [8]  E0 01 00 00 52 CB 00 00
  can0  292   [8]  C0 01 00 00 C4 CA 00 00
  can0  293   [8]  A0 01 00 00 F2 CA 00 00
  can0  295   [8]  A0 01 00 00 DA CA 00 00
  can0  296   [8]  A0 01 00 00 F2 CA 00 00
  can0  297   [8]  C0 01 00 00 94 CA 00 00
  can0  704   [1]  05
  can0  702   [1]  05
  can0  705   [1]  05
  can0  703   [1]  05
  can0  707   [1]  05
  can0  192   [8]  C0 80 62 19 64 19 06 26
  can0  7E5   [8]  4C 00 00 00 00 00 00 00
  can0  706   [1]  05
  can0  080   [0] 
  can0  292   [8]  C0 01 00 00 C4 CA 00 00
  can0  293   [8]  A0 01 00 00 F2 CA 00 00
  can0  294   [8]  C0 01 00 00 52 CB 00 00
  can0  295   [8]  A0 01 00 00 DA CA 00 00
  can0  296   [8]  C0 01 00 00 F2 CA 00 00
  can0  297   [8]  C0 01 00 00 94 CA 00 00
  can0  704   [1]  05
  can0  702   [1]  05
  can0  705   [1]  05
  can0  703   [1]  05
  can0  707   [1]  05
  can0  706   [1]  05
  can0  080   [0] 
  can0  295   [8]  A0 01 00 00 DA CA 00 00
  can0  292   [8]  C0 01 00 00 C4 CA 00 00
  can0  293   [8]  A0 01 00 00 F2 CA 00 00
  can0  294   [8]  C0 01 00 00 52 CB 00 00
  can0  296   [8]  C0 01 00 00 F2 CA 00 00
  can0  297   [8]  C0 01 00 00 94 CA 00 00
  can0  704   [1]  05
  can0  702   [1]  05
  can0  705   [1]  05
  can0  703   [1]  05
  can0  181   [8]  00 80 10 27 10 27 10 27
  can0  281   [8]  00 00 00 00 00 00 00 00
  can0  196   [8]  C0 80 62 19 64 19 06 26
  can0  707   [1]  05
  can0  706   [1]  05
  can0  080   [0] 
  can0  295   [8]  A0 01 00 00 DA CA 00 00
  can0  292   [8]  C0 01 00 00 C4 CA 00 00
  can0  293   [8]  A0 01 00 00 F2 CA 00 00
  can0  294   [8]  C0 01 00 00 52 CB 00 00
  can0  296   [8]  A0 01 00 00 F2 CA 00 00
  can0  297   [8]  C0 01 00 00 94 CA 00 00
  can0  396   [8]  72 B3 0D 00 28 01 F0 10
  can0  704   [1]  05
  can0  702   [1]  05
  can0  705   [1]  05
  can0  703   [1]  05
  can0  193   [8]  40 80 62 19 64 19 06 26
  can0  194   [8]  C0 80 62 19 64 19 06 26
  can0  707   [1]  05
  can0  706   [1]  05
  can0  080   [0] 
  can0  294   [8]  E0 01 00 00 52 CB 00 00
  can0  292   [8]  C0 01 00 00 C4 CA 00 00
  can0  293   [8]  A0 01 00 00 F2 CA 00 00
  can0  295   [8]  A0 01 00 00 DA CA 00 00
  can0  296   [8]  C0 01 00 00 0C CB 00 00
  can0  297   [8]  C0 01 00 00 94 CA 00 00
  can0  704   [1]  05
  can0  702   [1]  05
  can0  705   [1]  05
  can0  703   [1]  05
  can0  707   [1]  05
  can0  706   [1]  05
  can0  080   [0] 
  can0  295   [8]  A0 01 00 00 DA CA 00 00
  can0  292   [8]  C0 01 00 00 C4 CA 00 00
  can0  293   [8]  80 01 00 00 F2 CA 00 00
  can0  294   [8]  E0 01 00 00 52 CB 00 00
  can0  296   [8]  C0 01 00 00 0C CB 00 00
  can0  297   [8]  C0 01 00 00 94 CA 00 00
  can0  704   [1]  05
  can0  702   [1]  05
  can0  705   [1]  05
  can0  703   [1]  05
  can0  197   [8]  C0 80 62 19 64 19 06 26
  can0  707   [1]  05
  can0  706   [1]  05
  can0  080   [0] 
  can0  293   [8]  80 01 00 00 F2 CA 00 00
  can0  292   [8]  C0 01 00 00 C4 CA 00 00
  can0  294   [8]  C0 01 00 00 52 CB 00 00
  can0  295   [8]  A0 01 00 00 DA CA 00 00
  can0  296   [8]  A0 01 00 00 0C CB 00 00
  can0  297   [8]  C0 01 00 00 94 CA 00 00
  can0  704   [1]  05
  can0  702   [1]  05
  can0  705   [1]  05
  can0  703   [1]  05
  can0  707   [1]  05
  can0  706   [1]  05
  can0  080   [0] 
  can0  292   [8]  C0 01 00 00 C4 CA 00 00
  can0  293   [8]  80 01 00 00 F2 CA 00 00
  can0  294   [8]  00 02 00 00 52 CB 00 00
  can0  295   [8]  A0 01 00 00 DA CA 00 00
  can0  296   [8]  A0 01 00 00 0C CB 00 00
  can0  297   [8]  C0 01 00 00 94 CA 00 00
  can0  704   [1]  05
  can0  702   [1]  05
  can0  705   [1]  05
  can0  703   [1]  05
  can0  707   [1]  05
  can0  706   [1]  05
  can0  080   [0] 
  can0  295   [8]  A0 01 00 00 DA CA 00 00
  can0  292   [8]  C0 01 00 00 C4 CA 00 00
  can0  293   [8]  80 01 00 00 F2 CA 00 00
  can0  294   [8]  C0 01 00 00 52 CB 00 00
  can0  296   [8]  A0 01 00 00 0C CB 00 00
  can0  297   [8]  C0 01 00 00 94 CA 00 00
  can0  704   [1]  05
  can0  702   [1]  05
  can0  705   [1]  05
  can0  703   [1]  05
  can0  195   [8]  C0 80 62 19 64 19 06 26
  can0  707   [1]  05
  can0  706   [1]  05
  can0  080   [0] 
  can0  295   [8]  A0 01 00 00 DA CA 00 00
  can0  292   [8]  C0 01 00 00 C4 CA 00 00
  can0  293   [8]  A0 01 00 00 0C CB 00 00
  can0  294   [8]  E0 01 00 00 52 CB 00 00
  can0  296   [8]  C0 01 00 00 24 CB 00 00
  can0  297   [8]  C0 01 00 00 94 CA 00 00
  can0  704   [1]  05
  can0  702   [1]  05
  can0  705   [1]  05
  can0  703   [1]  05
  can0  707   [1]  05
  can0  706   [1]  05
  can0  080   [0] 
  can0  295   [8]  A0 01 00 00 DA CA 00 00
  can0  292   [8]  C0 01 00 00 C4 CA 00 00
  can0  293   [8]  60 01 00 00 0C CB 00 00
  can0  294   [8]  E0 01 00 00 52 CB 00 00
  can0  296   [8]  A0 01 00 00 24 CB 00 00
  can0  297   [8]  C0 01 00 00 94 CA 00 00
  can0  704   [1]  05
  can0  702   [1]  05
  can0  705   [1]  05
  can0  703   [1]  05
  can0  707   [1]  05
  can0  192   [8]  C0 80 62 19 64 19 06 26
  can0  706   [1]  05
  can0  080   [0] 
  can0  293   [8]  80 01 00 00 0C CB 00 00
  can0  292   [8]  C0 01 00 00 C4 CA 00 00
  can0  294   [8]  E0 01 00 00 52 CB 00 00
  can0  295   [8]  A0 01 00 00 DA CA 00 00
  can0  296   [8]  A0 01 00 00 24 CB 00 00
  can0  297   [8]  C0 01 00 00 94 CA 00 00
  can0  704   [1]  05
  can0  702   [1]  05
  can0  705   [1]  05
  can0  703   [1]  05
  can0  707   [1]  05
  can0  706   [1]  05
  can0  080   [0] 
  can0  292   [8]  C0 01 00 00 C4 CA 00 00
  can0  293   [8]  60 01 00 00 0C CB 00 00
  can0  294   [8]  00 02 00 00 52 CB 00 00
  can0  295   [8]  C0 01 00 00 DA CA 00 00
  can0  296   [8]  A0 01 00 00 24 CB 00 00
  can0  297   [8]  C0 01 00 00 7A CA 00 00
  can0  704   [1]  05
  can0  702   [1]  05
  can0  705   [1]  05
  can0  703   [1]  05
  can0  181   [8]  00 80 10 27 10 27 10 27
  can0  281   [8]  00 00 00 00 00 00 00 00
  can0  196   [8]  C0 80 62 19 64 19 06 26
  can0  707   [1]  05
  can0  706   [1]  05
  can0  080   [0] 
  can0  292   [8]  C0 01 00 00 C4 CA 00 00
  can0  293   [8]  80 01 00 00 0C CB 00 00
  can0  294   [8]  E0 01 00 00 52 CB 00 00
  can0  295   [8]  A0 01 00 00 DA CA 00 00
  can0  296   [8]  A0 01 00 00 24 CB 00 00
  can0  297   [8]  C0 01 00 00 7A CA 00 00
  can0  704   [1]  05
  can0  702   [1]  05
  can0  705   [1]  05
  can0  703   [1]  05
  can0  193   [8]  40 80 62 19 64 19 06 26
  can0  194   [8]  C0 80 62 19 64 19 06 26
  can0  707   [1]  05
  can0  706   [1]  05
  can0  080   [0] 
  can0  294   [8]  00 02 00 00 52 CB 00 00
  can0  292   [8]  C0 01 00 00 C4 CA 00 00
  can0  293   [8]  60 01 00 00 F2 CA 00 00
  can0  295   [8]  A0 01 00 00 DA CA 00 00
  can0  296   [8]  A0 01 00 00 24 CB 00 00
  can0  297   [8]  C0 01 00 00 7A CA 00 00
  can0  704   [1]  05
  can0  702   [1]  05
  can0  705   [1]  05
  can0  703   [1]  05
  can0  707   [1]  05
  can0  706   [1]  05
  can0  080   [0] 
  can0  293   [8]  80 01 00 00 F2 CA 00 00
  can0  292   [8]  C0 01 00 00 C4 CA 00 00
  can0  294   [8]  C0 01 00 00 52 CB 00 00
  can0  295   [8]  A0 01 00 00 DA CA 00 00
  can0  296   [8]  C0 01 00 00 24 CB 00 00
  can0  297   [8]  C0 01 00 00 7A CA 00 00
  can0  704   [1]  05
  can0  702   [1]  05
  can0  705   [1]  05
  can0  703   [1]  05
  can0  197   [8]  C0 80 62 19 64 19 06 26
  can0  707   [1]  05
  can0  706   [1]  05
  can0  080   [0] 
  can0  294   [8]  C0 01 00 00 52 CB 00 00
  can0  292   [8]  C0 01 00 00 C4 CA 00 00
  can0  293   [8]  80 01 00 00 F2 CA 00 00
  can0  295   [8]  A0 01 00 00 DA CA 00 00
  can0  296   [8]  E0 01 00 00 24 CB 00 00
  can0  297   [8]  C0 01 00 00 7A CA 00 00
  can0  704   [1]  05
  can0  702   [1]  05
  can0  705   [1]  05
  can0  703   [1]  05
  can0  707   [1]  05
  can0  706   [1]  05
  can0  080   [0] 
  can0  292   [8]  C0 01 00 00 C4 CA 00 00
  can0  293   [8]  80 01 00 00 F2 CA 00 00
  can0  294   [8]  C0 01 00 00 52 CB 00 00
  can0  295   [8]  A0 01 00 00 DA CA 00 00
  can0  296   [8]  E0 01 00 00 24 CB 00 00
  can0  297   [8]  C0 01 00 00 94 CA 00 00
  can0  704   [1]  05
  can0  702   [1]  05
  can0  705   [1]  05
  can0  703   [1]  05
  can0  707   [1]  05
  can0  706   [1]  05
  can0  080   [0] 
  can0  293   [8]  60 01 00 00 F2 CA 00 00
  can0  292   [8]  C0 01 00 00 C4 CA 00 00
  can0  294   [8]  E0 01 00 00 52 CB 00 00
  can0  295   [8]  A0 01 00 00 DA CA 00 00
  can0  296   [8]  A0 01 00 00 24 CB 00 00
  can0  297   [8]  C0 01 00 00 94 CA 00 00
  can0  704   [1]  05
  can0  702   [1]  05
  can0  705   [1]  05
  can0  703   [1]  05
  can0  195   [8]  C0 80 62 19 64 19 06 26
  can0  707   [1]  05
  can0  706   [1]  05
  can0  080   [0] 
  can0  292   [8]  C0 01 00 00 C4 CA 00 00
  can0  293   [8]  80 01 00 00 F2 CA 00 00
  can0  294   [8]  E0 01 00 00 52 CB 00 00
  can0  295   [8]  A0 01 00 00 DA CA 00 00
  can0  296   [8]  A0 01 00 00 F2 CA 00 00
  can0  297   [8]  C0 01 00 00 94 CA 00 00
  can0  704   [1]  05
  can0  702   [1]  05
  can0  705   [1]  05
  can0  703   [1]  05
  can0  707   [1]  05
  can0  706   [1]  05
  can0  080   [0] 
  can0  292   [8]  C0 01 00 00 C4 CA 00 00
  can0  293   [8]  80 01 00 00 F2 CA 00 00
  can0  294   [8]  E0 01 00 00 3C CB 00 00
  can0  295   [8]  A0 01 00 00 DA CA 00 00
  can0  296   [8]  A0 01 00 00 F2 CA 00 00
  can0  297   [8]  C0 01 00 00 94 CA 00 00
  can0  704   [1]  05
  can0  702   [1]  05
  can0  705   [1]  05
  can0  703   [1]  05
  can0  707   [1]  05
  can0  192   [8]  C0 80 62 19 64 19 06 26
  can0  706   [1]  05
  can0  080   [0] 
  can0  292   [8]  C0 01 00 00 C4 CA 00 00
  can0  293   [8]  60 01 00 00 F2 CA 00 00
  can0  294   [8]  E0 01 00 00 3C CB 00 00
  can0  295   [8]  A0 01 00 00 DA CA 00 00
  can0  296   [8]  C0 01 00 00 F2 CA 00 00
  can0  297   [8]  C0 01 00 00 94 CA 00 00
  can0  704   [1]  05
  can0  702   [1]  05
  can0  705   [1]  05
  can0  703   [1]  05
  can0  707   [1]  05
  can0  706   [1]  05
  can0  080   [0] 
  can0  292   [8]  C0 01 00 00 C4 CA 00 00
  can0  293   [8]  A0 01 00 00 F2 CA 00 00
  can0  294   [8]  C0 01 00 00 3C CB 00 00
  can0  295   [8]  A0 01 00 00 DA CA 00 00
  can0  296   [8]  C0 01 00 00 F2 CA 00 00
  can0  297   [8]  C0 01 00 00 94 CA 00 00
  can0  704   [1]  05
  can0  702   [1]  05
  can0  705   [1]  05
  can0  703   [1]  05
  can0  181   [8]  00 80 10 27 10 27 10 27
  can0  281   [8]  00 00 00 00 00 00 00 00
  can0  196   [8]  C0 80 62 19 64 19 06 26
  can0  707   [1]  05
  can0  706   [1]  05
  can0  080   [0] 
  can0  295   [8]  A0 01 00 00 DA CA 00 00
  can0  292   [8]  C0 01 00 00 C4 CA 00 00
  can0  293   [8]  80 01 00 00 F2 CA 00 00
  can0  294   [8]  C0 01 00 00 3C CB 00 00
  can0  296   [8]  C0 01 00 00 F2 CA 00 00
  can0  297   [8]  C0 01 00 00 94 CA 00 00
  can0  704   [1]  05
  can0  702   [1]  05
  can0  705   [1]  05
  can0  703   [1]  05
  can0  193   [8]  40 80 62 19 64 19 06 26
  can0  194   [8]  C0 80 62 19 64 19 06 26
  can0  707   [1]  05
  can0  706   [1]  05
  can0  080   [0] 
  can0  293   [8]  80 01 00 00 F2 CA 00 00
  can0  292   [8]  C0 01 00 00 C4 CA 00 00
  can0  294   [8]  E0 01 00 00 3C CB 00 00
  can0  295   [8]  A0 01 00 00 DA CA 00 00
  can0  296   [8]  C0 01 00 00 0C CB 00 00
  can0  297   [8]  C0 01 00 00 94 CA 00 00
  can0  704   [1]  05
  can0  702   [1]  05
  can0  705   [1]  05
  can0  703   [1]  05
  can0  707   [1]  05
  can0  706   [1]  05
  can0  080   [0] 
  can0  295   [8]  A0 01 00 00 DA CA 00 00
  can0  292   [8]  C0 01 00 00 C4 CA 00 00
  can0  293   [8]  80 01 00 00 F2 CA 00 00
  can0  294   [8]  E0 01 00 00 24 CB 00 00
  can0  296   [8]  E0 01 00 00 0C CB 00 00
  can0  297   [8]  C0 01 00 00 94 CA 00 00
  can0  704   [1]  05
  can0  702   [1]  05
  can0  705   [1]  05
  can0  703   [1]  05
  can0  197   [8]  C0 80 62 19 64 19 06 26
  can0  707   [1]  05
  can0  706   [1]  05
  can0  080   [0] 
  can0  292   [8]  C0 01 00 00 C4 CA 00 00
  can0  293   [8]  80 01 00 00 F2 CA 00 00
  can0  294   [8]  E0 01 00 00 24 CB 00 00
  can0  295   [8]  A0 01 00 00 DA CA 00 00
  can0  296   [8]  C0 01 00 00 0C CB 00 00
  can0  297   [8]  C0 01 00 00 94 CA 00 00
  can0  704   [1]  05
  can0  702   [1]  05
  can0  705   [1]  05
  can0  703   [1]  05
  can0  707   [1]  05
  can0  706   [1]  05
  can0  080   [0] 
  can0  295   [8]  A0 01 00 00 DA CA 00 00
  can0  292   [8]  C0 01 00 00 C4 CA 00 00
  can0  293   [8]  80 01 00 00 F2 CA 00 00
  can0  294   [8]  00 02 00 00 24 CB 00 00
  can0  296   [8]  C0 01 00 00 0C CB 00 00
  can0  297   [8]  C0 01 00 00 7A CA 00 00
  can0  704   [1]  05
  can0  702   [1]  05
  can0  705   [1]  05
  can0  703   [1]  05
  can0  707   [1]  05
  can0  706   [1]  05
  can0  080   [0] 
  can0  295   [8]  A0 01 00 00 DA CA 00 00
  can0  292   [8]  C0 01 00 00 C4 CA 00 00
  can0  293   [8]  60 01 00 00 F2 CA 00 00
  can0  294   [8]  E0 01 00 00 24 CB 00 00
  can0  296   [8]  C0 01 00 00 0C CB 00 00
  can0  297   [8]  C0 01 00 00 7A CA 00 00
  can0  394   [8]  41 B3 0B 00 1C 01 F2 0F
  can0  704   [1]  05
  can0  702   [1]  05
  can0  705   [1]  05
  can0  703   [1]  05
  can0  195   [8]  C0 80 62 19 64 19 06 26
  can0  707   [1]  05
  can0  706   [1]  05
  can0  080   [0] 
  can0  294   [8]  C0 01 00 00 24 CB 00 00
  can0  292   [8]  C0 01 00 00 C4 CA 00 00
  can0  293   [8]  80 01 00 00 F2 CA 00 00
  can0  295   [8]  A0 01 00 00 DA CA 00 00
  can0  296   [8]  C0 01 00 00 0C CB 00 00
  can0  297   [8]  C0 01 00 00 7A CA 00 00
  can0  704   [1]  05
  can0  702   [1]  05
  can0  705   [1]  05
  can0  703   [1]  05
  can0  707   [1]  05
  can0  706   [1]  05
  can0  080   [0] 
  can0  292   [8]  C0 01 00 00 C4 CA 00 00
  can0  293   [8]  80 01 00 00 F2 CA 00 00
  can0  294   [8]  00 02 00 00 52 CB 00 00
  can0  295   [8]  A0 01 00 00 DA CA 00 00
  can0  296   [8]  A0 01 00 00 0C CB 00 00
  can0  297   [8]  C0 01 00 00 7A CA 00 00
  can0  704   [1]  05
  can0  702   [1]  05
  can0  705   [1]  05
  can0  703   [1]  05
  can0  193   [8]  80 80 62 19 64 19 06 26
  can0  707   [1]  05
  can0  192   [8]  C0 80 62 19 64 19 06 26
  can0  706   [1]  05
  can0  080   [0] 
  can0  292   [8]  C0 01 00 00 C4 CA 00 00
  can0  293   [8]  80 01 00 00 F2 CA 00 00
  can0  294   [8]  E0 01 00 00 52 CB 00 00
  can0  295   [8]  A0 01 00 00 DA CA 00 00
  can0  296   [8]  A0 01 00 00 0C CB 00 00
  can0  297   [8]  C0 01 00 00 7A CA 00 00
  can0  397   [8]  36 23 0D 00 2A 01 DD 11
  can0  704   [1]  05
  can0  702   [1]  05
  can0  705   [1]  05
  can0  703   [1]  05
  can0  707   [1]  05
  can0  706   [1]  05
  can0  080   [0] 
  can0  294   [8]  E0 01 00 00 52 CB 00 00
  can0  292   [8]  C0 01 00 00 C4 CA 00 00
  can0  293   [8]  80 01 00 00 F2 CA 00 00
  can0  295   [8]  A0 01 00 00 DA CA 00 00
  can0  296   [8]  E0 01 00 00 0C CB 00 00
  can0  297   [8]  C0 01 00 00 94 CA 00 00
  can0  704   [1]  05
  can0  702   [1]  05
