  can0  706   [1]  05
  can0  702   [1]  05
  can0  080   [0] 
  can0  293   [8]  A0 01 00 00 F2 CA 00 00
  can0  292   [8]  A0 01 00 00 DA CA 00 00
  can0  294   [8]  E0 01 00 00 52 CB 00 00
  can0  295   [8]  A0 01 00 00 F2 CA 00 00
  can0  296   [8]  A0 01 00 00 24 CB 00 00
  can0  297   [8]  C0 01 00 00 AC CA 00 00
  can0  704   [1]  05
  can0  705   [1]  05
  can0  703   [1]  05
  can0  181   [8]  00 80 10 27 10 27 10 27
  can0  281   [8]  00 00 00 00 00 00 00 00
  can0  707   [1]  05
  can0  194   [8]  C0 80 62 19 64 19 06 26
  can0  706   [1]  05
  can0  702   [1]  05
  can0  080   [0] 
  can0  292   [8]  C0 01 00 00 DA CA 00 00
  can0  293   [8]  A0 01 00 00 F2 CA 00 00
  can0  294   [8]  C0 01 00 00 52 CB 00 00
  can0  295   [8]  A0 01 00 00 F2 CA 00 00
  can0  296   [8]  C0 01 00 00 24 CB 00 00
  can0  297   [8]  C0 01 00 00 AC CA 00 00
  can0  704   [1]  05
  can0  703   [1]  05
  can0  705   [1]  05
  can0  707   [1]  05
  can0  706   [1]  05
  can0  702   [1]  05
  can0  080   [0] 
  can0  293   [8]  C0 01 00 00 F2 CA 00 00
  can0  292   [8]  C0 01 00 00 DA CA 00 00
  can0  294   [8]  C0 01 00 00 52 CB 00 00
  can0  295   [8]  A0 01 00 00 DA CA 00 00
  can0  296   [8]  A0 01 00 00 24 CB 00 00
  can0  297   [8]  C0 01 00 00 AC CA 00 00
  can0  704   [1]  05
  can0  705   [1]  05
  can0  703   [1]  05
  can0  197   [8]  C0 80 62 19 64 19 06 26
  can0  707   [1]  05
  can0  706   [1]  05
  can0  702   [1]  05
  can0  080   [0] 
  can0  296   [8]  A0 01 00 00 24 CB 00 00
  can0  292   [8]  C0 01 00 00 DA CA 00 00
  can0  293   [8]  A0 01 00 00 F2 CA 00 00
  can0  294   [8]  C0 01 00 00 52 CB 00 00
  can0  295   [8]  A0 01 00 00 DA CA 00 00
  can0  297   [8]  C0 01 00 00 AC CA 00 00
  can0  704   [1]  05
  can0  705   [1]  05
  can0  703   [1]  05
  can0  707   [1]  05
  can0  706   [1]  05
  can0  702   [1]  05
  can0  080   [0] 
  can0  292   [8]  A0 01 00 00 DA CA 00 00
  can0  293   [8]  C0 01 00 00 F2 CA 00 00
  can0  294   [8]  E0 01 00 00 52 CB 00 00
  can0  295   [8]  A0 01 00 00 DA CA 00 00
  can0  296   [8]  C0 01 00 00 24 CB 00 00
  can0  297   [8]  C0 01 00 00 94 CA 00 00
  can0  704   [1]  05
  can0  705   [1]  05
  can0  703   [1]  05
  can0  707   [1]  05
  can0  706   [1]  05
  can0  702   [1]  05
  can0  080   [0] 
  can0  296   [8]  A0 01 00 00 24 CB 00 00
  can0  292   [8]  C0 01 00 00 DA CA 00 00
  can0  293   [8]  A0 01 00 00 F2 CA 00 00
  can0  294   [8]  C0 01 00 00 52 CB 00 00
  can0  295   [8]  A0 01 00 00 DA CA 00 00
  can0  297   [8]  C0 01 00 00 94 CA 00 00
  can0  704   [1]  05
  can0  705   [1]  05
  can0  703   [1]  05
  can0  195   [8]  C0 80 62 19 64 19 06 26
  can0  707   [1]  05
  can0  706   [1]  05
  can0  702   [1]  05
  can0  080   [0] 
  can0  293   [8]  A0 01 00 00 0C CB 00 00
  can0  292   [8]  C0 01 00 00 DA CA 00 00
  can0  294   [8]  E0 01 00 00 52 CB 00 00
  can0  295   [8]  A0 01 00 00 DA CA 00 00
  can0  296   [8]  C0 01 00 00 24 CB 00 00
  can0  297   [8]  C0 01 00 00 94 CA 00 00
  can0  602   [8]  40 64 61 01 00 00 00 00
  can0  582   [8]  4B 64 61 01 38 0F 00 00
  can0  704   [1]  05
  can0  705   [1]  05
  can0  703   [1]  05
  can0  707   [1]  05
  can0  706   [1]  05
  can0  702   [1]  05
  can0  080   [0] 
  can0  292   [8]  C0 01 00 00 DA CA 00 00
  can0  293   [8]  C0 01 00 00 0C CB 00 00
  can0  294   [8]  C0 01 00 00 6A CB 00 00
  can0  295   [8]  A0 01 00 00 DA CA 00 00
  can0  296   [8]  A0 01 00 00 24 CB 00 00
  can0  297   [8]  C0 01 00 00 94 CA 00 00
  can0  704   [1]  05
  can0  705   [1]  05
  can0  703   [1]  05
  can0  707   [1]  05
  can0  192   [8]  C0 80 62 19 64 19 06 26
  can0  706   [1]  05
  can0  702   [1]  05
  can0  080   [0] 
  can0  295   [8]  A0 01 00 00 DA CA 00 00
  can0  292   [8]  E0 01 00 00 DA CA 00 00
  can0  293   [8]  C0 01 00 00 0C CB 00 00
  can0  294   [8]  E0 01 00 00 6A CB 00 00
  can0  296   [8]  C0 01 00 00 24 CB 00 00
  can0  297   [8]  C0 01 00 00 94 CA 00 00
  can0  393   [8]  4D 3D 0F 00 26 01 93 14
  can0  704   [1]  05
  can0  705   [1]  05
  can0  703   [1]  05
  can0  707   [1]  05
  can0  706   [1]  05
  can0  702   [1]  05
  can0  080   [0] 
  can0  295   [8]  A0 01 00 00 DA CA 00 00
  can0  292   [8]  C0 01 00 00 F2 CA 00 00
  can0  293   [8]  A0 01 00 00 0C CB 00 00
  can0  294   [8]  E0 01 00 00 6A CB 00 00
  can0  296   [8]  E0 01 00 00 24 CB 00 00
  can0  297   [8]  A0 01 00 00 AC CA 00 00
  can0  704   [1]  05
  can0  705   [1]  05
  can0  703   [1]  05
  can0  193   [8]  C0 80 62 19 64 19 06 26
  can0  196   [8]  C0 80 62 19 64 19 06 26
  can0  707   [1]  05
  can0  706   [1]  05
  can0  702   [1]  05
  can0  080   [0] 
  can0  293   [8]  C0 01 00 00 0C CB 00 00
  can0  292   [8]  C0 01 00 00 F2 CA 00 00
  can0  294   [8]  C0 01 00 00 6A CB 00 00
  can0  295   [8]  A0 01 00 00 DA CA 00 00
  can0  296   [8]  C0 01 00 00 24 CB 00 00
  can0  297   [8]  C0 01 00 00 AC CA 00 00
  can0  704   [1]  05
  can0  705   [1]  05
  can0  703   [1]  05
  can0  181   [8]  00 80 10 27 10 27 10 27
  can0  281   [8]  00 00 00 00 00 00 00 00
  can0  707   [1]  05
  can0  194   [8]  C0 80 62 19 64 19 06 26
  can0  706   [1]  05
  can0  702   [1]  05
  can0  080   [0] 
  can0  295   [8]  A0 01 00 00 DA CA 00 00
  can0  292   [8]  C0 01 00 00 F2 CA 00 00
  can0  293   [8]  A0 01 00 00 F2 CA 00 00
  can0  294   [8]  C0 01 00 00 6A CB 00 00
  can0  296   [8]  C0 01 00 00 24 CB 00 00
  can0  297   [8]  C0 01 00 00 AC CA 00 00
  can0  396   [8]  3E B4 0D 00 28 01 F0 10
  can0  704   [1]  05
  can0  705   [1]  05
  can0  703   [1]  05
  can0  707   [1]  05
  can0  706   [1]  05
  can0  702   [1]  05
  can0  080   [0] 
  can0  294   [8]  C0 01 00 00 52 CB 00 00
  can0  292   [8]  C0 01 00 00 F2 CA 00 00
  can0  293   [8]  C0 01 00 00 F2 CA 00 00
  can0  295   [8]  A0 01 00 00 DA CA 00 00
  can0  296   [8]  A0 01 00 00 24 CB 00 00
  can0  297   [8]  C0 01 00 00 AC CA 00 00
  can0  704   [1]  05
  can0  705   [1]  05
  can0  703   [1]  05
  can0  197   [8]  C0 80 62 19 64 19 06 26
  can0  707   [1]  05
  can0  706   [1]  05
  can0  702   [1]  05
  can0  080   [0] 
  can0  293   [8]  A0 01 00 00 F2 CA 00 00
  can0  292   [8]  C0 01 00 00 F2 CA 00 00
  can0  294   [8]  E0 01 00 00 52 CB 00 00
  can0  295   [8]  A0 01 00 00 DA CA 00 00
  can0  296   [8]  C0 01 00 00 24 CB 00 00
  can0  297   [8]  C0 01 00 00 AC CA 00 00
  can0  704   [1]  05
  can0  705   [1]  05
  can0  703   [1]  05
  can0  707   [1]  05
  can0  706   [1]  05
  can0  702   [1]  05
  can0  080   [0] 
  can0  293   [8]  A0 01 00 00 F2 CA 00 00
  can0  292   [8]  C0 01 00 00 DA CA 00 00
  can0  294   [8]  C0 01 00 00 52 CB 00 00
  can0  295   [8]  A0 01 00 00 DA CA 00 00
  can0  296   [8]  E0 01 00 00 24 CB 00 00
  can0  297   [8]  C0 01 00 00 94 CA 00 00
  can0  704   [1]  05
  can0  705   [1]  05
  can0  703   [1]  05
  can0  707   [1]  05
  can0  706   [1]  05
  can0  702   [1]  05
  can0  080   [0] 
  can0  292   [8]  C0 01 00 00 DA CA 00 00
  can0  293   [8]  A0 01 00 00 F2 CA 00 00
  can0  294   [8]  E0 01 00 00 52 CB 00 00
  can0  295   [8]  A0 01 00 00 DA CA 00 00
  can0  296   [8]  A0 01 00 00 24 CB 00 00
  can0  297   [8]  C0 01 00 00 94 CA 00 00
  can0  704   [1]  05
  can0  705   [1]  05
  can0  703   [1]  05
  can0  195   [8]  C0 80 62 19 64 19 06 26
  can0  707   [1]  05
  can0  706   [1]  05
  can0  702   [1]  05
  can0  603   [8]  40 64 61 01 00 00 00 00
  can0  583   [8]  4B 64 61 01 93 14 00 00
  can0  080   [0] 
  can0  297   [8]  C0 01 00 00 94 CA 00 00
  can0  292   [8]  C0 01 00 00 DA CA 00 00
  can0  293   [8]  C0 01 00 00 F2 CA 00 00
  can0  294   [8]  C0 01 00 00 52 CB 00 00
  can0  295   [8]  A0 01 00 00 DA CA 00 00
  can0  296   [8]  E0 01 00 00 24 CB 00 00
  can0  704   [1]  05
  can0  703   [1]  05
  can0  705   [1]  05
  can0  707   [1]  05
  can0  706   [1]  05
  can0  702   [1]  05
  can0  080   [0] 
  can0  295   [8]  A0 01 00 00 C4 CA 00 00
  can0  292   [8]  C0 01 00 00 DA CA 00 00
  can0  293   [8]  C0 01 00 00 F2 CA 00 00
  can0  294   [8]  E0 01 00 00 52 CB 00 00
  can0  296   [8]  C0 01 00 00 24 CB 00 00
  can0  297   [8]  C0 01 00 00 94 CA 00 00
  can0  704   [1]  05
  can0  705   [1]  05
  can0  703   [1]  05
  can0  707   [1]  05
  can0  192   [8]  C0 80 62 19 64 19 06 26
  can0  706   [1]  05
  can0  702   [1]  05
  can0  080   [0] 
  can0  296   [8]  C0 01 00 00 24 CB 00 00
  can0  292   [8]  C0 01 00 00 DA CA 00 00
  can0  293   [8]  C0 01 00 00 F2 CA 00 00
  can0  294   [8]  C0 01 00 00 52 CB 00 00
  can0  295   [8]  A0 01 00 00 C4 CA 00 00
  can0  297   [8]  C0 01 00 00 94 CA 00 00
  can0  704   [1]  05
  can0  705   [1]  05
  can0  703   [1]  05
  can0  707   [1]  05
  can0  706   [1]  05
  can0  7E5   [8]  4C 00 00 00 00 00 00 00
  can0  702   [1]  05
  can0  080   [0] 
  can0  292   [8]  A0 01 00 00 DA CA 00 00
  can0  293   [8]  C0 01 00 00 F2 CA 00 00
  can0  294   [8]  C0 01 00 00 52 CB 00 00
  can0  295   [8]  A0 01 00 00 C4 CA 00 00
  can0  296   [8]  A0 01 00 00 24 CB 00 00
  can0  297   [8]  C0 01 00 00 94 CA 00 00
  can0  704   [1]  05
  can0  705   [1]  05
  can0  703   [1]  05
  can0  193   [8]  C0 80 62 19 64 19 06 26
  can0  196   [8]  C0 80 62 19 64 19 06 26
  can0  707   [1]  05
  can0  706   [1]  05
  can0  702   [1]  05
  can0  080   [0] 
  can0  293   [8]  C0 01 00 00 F2 CA 00 00
  can0  292   [8]  C0 01 00 00 DA CA 00 00
  can0  294   [8]  C0 01 00 00 52 CB 00 00
  can0  295   [8]  A0 01 00 00 C4 CA 00 00
  can0  296   [8]  C0 01 00 00 24 CB 00 00
  can0  297   [8]  C0 01 00 00 94 CA 00 00
  can0  704   [1]  05
  can0  705   [1]  05
  can0  703   [1]  05
  can0  181   [8]  00 80 10 27 10 27 10 27
  can0  281   [8]  00 00 00 00 00 00 00 00
  can0  707   [1]  05
  can0  194   [8]  C0 80 62 19 64 19 06 26
  can0  706   [1]  05
  can0  702   [1]  05
  can0  080   [0] 
  can0  295   [8]  A0 01 00 00 C4 CA 00 00
  can0  292   [8]  A0 01 00 00 DA CA 00 00
  can0  293   [8]  A0 01 00 00 F2 CA 00 00
  can0  294   [8]  C0 01 00 00 52 CB 00 00
  can0  296   [8]  C0 01 00 00 24 CB 00 00
  can0  297   [8]  C0 01 00 00 94 CA 00 00
  can0  704   [1]  05
  can0  705   [1]  05
  can0  703   [1]  05
  can0  707   [1]  05
  can0  706   [1]  05
  can0  702   [1]  05
  can0  080   [0] 
  can0  297   [8]  C0 01 00 00 94 CA 00 00
  can0  292   [8]  C0 01 00 00 DA CA 00 00
  can0  293   [8]  C0 01 00 00 F2 CA 00 00
  can0  294   [8]  00 02 00 00 6A CB 00 00
  can0  295   [8]  A0 01 00 00 DA CA 00 00
  can0  296   [8]  A0 01 00 00 24 CB 00 00
  can0  704   [1]  05
  can0  705   [1]  05
  can0  703   [1]  05
  can0  197   [8]  C0 80 62 19 64 19 06 26
  can0  707   [1]  05
  can0  706   [1]  05
  can0  702   [1]  05
  can0  080   [0] 
  can0  295   [8]  A0 01 00 00 DA CA 00 00
  can0  292   [8]  C0 01 00 00 DA CA 00 00
  can0  293   [8]  C0 01 00 00 F2 CA 00 00
  can0  294   [8]  C0 01 00 00 6A CB 00 00
  can0  296   [8]  C0 01 00 00 24 CB 00 00
  can0  297   [8]  C0 01 00 00 94 CA 00 00
  can0  704   [1]  05
  can0  703   [1]  05
  can0  705   [1]  05
  can0  707   [1]  05
  can0  706   [1]  05
  can0  702   [1]  05
  can0  080   [0] 
  can0  293   [8]  A0 01 00 00 F2 CA 00 00
  can0  292   [8]  A0 01 00 00 C4 CA 00 00
  can0  294   [8]  C0 01 00 00 6A CB 00 00
  can0  295   [8]  A0 01 00 00 DA CA 00 00
  can0  296   [8]  C0 01 00 00 24 CB 00 00
  can0  297   [8]  C0 01 00 00 94 CA 00 00
  can0  704   [1]  05
  can0  705   [1]  05
  can0  703   [1]  05
  can0  707   [1]  05
  can0  706   [1]  05
  can0  702   [1]  05
  can0  080   [0] 
  can0  297   [8]  C0 01 00 00 94 CA 00 00
  can0  292   [8]  C0 01 00 00 C4 CA 00 00
  can0  293   [8]  C0 01 00 00 F2 CA 00 00
  can0  294   [8]  C0 01 00 00 6A CB 00 00
  can0  295   [8]  A0 01 00 00 DA CA 00 00
  can0  296   [8]  C0 01 00 00 0C CB 00 00
  can0  704   [1]  05
  can0  705   [1]  05
  can0  703   [1]  05
  can0  195   [8]  C0 80 62 19 64 19 06 26
  can0  707   [1]  05
  can0  706   [1]  05
  can0  702   [1]  05
  can0  604   [8]  40 64 61 01 00 00 00 00
  can0  584   [8]  4B 64 61 01 F3 0F 00 00
  can0  080   [0] 
  can0  294   [8]  C0 01 00 00 6A CB 00 00
  can0  292   [8]  C0 01 00 00 C4 CA 00 00
  can0  293   [8]  A0 01 00 00 0C CB 00 00
  can0  295   [8]  A0 01 00 00 DA CA 00 00
  can0  296   [8]  E0 01 00 00 0C CB 00 00
  can0  297   [8]  C0 01 00 00 94 CA 00 00
  can0  704   [1]  05
  can0  705   [1]  05
  can0  703   [1]  05
  can0  707   [1]  05
  can0  706   [1]  05
  can0  702   [1]  05
  can0  080   [0] 
  can0  295   [8]  A0 01 00 00 F2 CA 00 00
  can0  292   [8]  A0 01 00 00 C4 CA 00 00
  can0  293   [8]  A0 01 00 00 0C CB 00 00
  can0  294   [8]  E0 01 00 00 52 CB 00 00
  can0  296   [8]  C0 01 00 00 0C CB 00 00
  can0  297   [8]  C0 01 00 00 94 CA 00 00
  can0  704   [1]  05
  can0  705   [1]  05
  can0  703   [1]  05
  can0  707   [1]  05
  can0  192   [8]  C0 80 62 19 64 19 06 26
  can0  706   [1]  05
  can0  702   [1]  05
  can0  080   [0] 
  can0  296   [8]  C0 01 00 00 0C CB 00 00
  can0  292   [8]  A0 01 00 00 C4 CA 00 00
  can0  293   [8]  C0 01 00 00 0C CB 00 00
  can0  294   [8]  E0 01 00 00 52 CB 00 00
  can0  295   [8]  A0 01 00 00 F2 CA 00 00
  can0  297   [8]  C0 01 00 00 94 CA 00 00
  can0  704   [1]  05
  can0  705   [1]  05
  can0  703   [1]  05
  can0  707   [1]  05
  can0  706   [1]  05
  can0  702   [1]  05
  can0  080   [0] 
  can0  292   [8]  A0 01 00 00 DA CA 00 00
  can0  293   [8]  C0 01 00 00 0C CB 00 00
  can0  294   [8]  E0 01 00 00 52 CB 00 00
  can0  295   [8]  A0 01 00 00 F2 CA 00 00
  can0  296   [8]  C0 01 00 00 0C CB 00 00
  can0  297   [8]  C0 01 00 00 94 CA 00 00
  can0  704   [1]  05
  can0  705   [1]  05
  can0  703   [1]  05
  can0  193   [8]  C0 80 62 19 64 19 06 26
  can0  196   [8]  C0 80 62 19 64 19 06 26
  can0  707   [1]  05
  can0  706   [1]  05
  can0  702   [1]  05
  can0  080   [0] 
  can0  292   [8]  A0 01 00 00 DA CA 00 00
  can0  293   [8]  C0 01 00 00 0C CB 00 00
  can0  294   [8]  E0 01 00 00 52 CB 00 00
  can0  295   [8]  A0 01 00 00 F2 CA 00 00
  can0  296   [8]  C0 01 00 00 0C CB 00 00
  can0  297   [8]  C0 01 00 00 94 CA 00 00
  can0  704   [1]  05
  can0  705   [1]  05
  can0  703   [1]  05
  can0  181   [8]  00 80 10 27 10 27 10 27
  can0  281   [8]  00 00 00 00 00 00 00 00
  can0  707   [1]  05
  can0  194   [8]  C0 80 62 19 64 19 06 26
  can0  706   [1]  05
  can0  702   [1]  05
  can0  080   [0] 
  can0  297   [8]  C0 01 00 00 94 CA 00 00
  can0  292   [8]  C0 01 00 00 DA CA 00 00
  can0  293   [8]  A0 01 00 00 0C CB 00 00
  can0  294   [8]  C0 01 00 00 52 CB 00 00
  can0  295   [8]  A0 01 00 00 F2 CA 00 00
  can0  296   [8]  A0 01 00 00 0C CB 00 00
  can0  704   [1]  05
  can0  705   [1]  05
  can0  703   [1]  05
  can0  707   [1]  05
  can0  706   [1]  05
  can0  702   [1]  05
  can0  080   [0] 
  can0  295   [8]  A0 01 00 00 DA CA 00 00
  can0  292   [8]  C0 01 00 00 DA CA 00 00
  can0  293   [8]  A0 01 00 00 0C CB 00 00
  can0  294   [8]  E0 01 00 00 52 CB 00 00
  can0  296   [8]  A0 01 00 00 0C CB 00 00
  can0  297   [8]  C0 01 00 00 94 CA 00 00
  can0  704   [1]  05
  can0  705   [1]  05
  can0  703   [1]  05
  can0  197   [8]  C0 80 62 19 64 19 06 26
  can0  707   [1]  05
  can0  706   [1]  05
  can0  702   [1]  05
  can0  080   [0] 
  can0  293   [8]  C0 01 00 00 0C CB 00 00
  can0  292   [8]  C0 01 00 00 DA CA 00 00
  can0  294   [8]  C0 01 00 00 52 CB 00 00
  can0  295   [8]  A0 01 00 00 DA CA 00 00
  can0  296   [8]  A0 01 00 00 0C CB 00 00
  can0  297   [8]  C0 01 00 00 94 CA 00 00
  can0  704   [1]  05
  can0  705   [1]  05
  can0  703   [1]  05
  can0  707   [1]  05
  can0  706   [1]  05
  can0  702   [1]  05
  can0  080   [0] 
  can0  295   [8]  A0 01 00 00 DA CA 00 00
  can0  292   [8]  C0 01 00 00 C4 CA 00 00
  can0  293   [8]  C0 01 00 00 0C CB 00 00
  can0  294   [8]  E0 01 00 00 52 CB 00 00
  can0  296   [8]  C0 01 00 00 0C CB 00 00
  can0  297   [8]  C0 01 00 00 AC CA 00 00
  can0  704   [1]  05
  can0  705   [1]  05
  can0  703   [1]  05
  can0  707   [1]  05
  can0  706   [1]  05
  can0  702   [1]  05
  can0  080   [0] 
  can0  295   [8]  A0 01 00 00 DA CA 00 00
  can0  292   [8]  C0 01 00 00 C4 CA 00 00
  can0  293   [8]  C0 01 00 00 0C CB 00 00
  can0  294   [8]  C0 01 00 00 52 CB 00 00
  can0  296   [8]  A0 01 00 00 24 CB 00 00
  can0  297   [8]  C0 01 00 00 AC CA 00 00
  can0  704   [1]  05
  can0  705   [1]  05
  can0  703   [1]  05
  can0  603   [8]  2B 01 60 01 00 03 00 00
  can0  583   [8]  60 01 60 01 00 00 00 00
  can0  193   [8]  40 80 62 19 64 19 06 26
  can0  195   [8]  C0 80 62 19 64 19 06 26
  can0  707   [1]  05
  can0  706   [1]  05
  can0  702   [1]  05
  can0  605   [8]  40 64 61 01 00 00 00 00
  can0  585   [8]  4B 64 61 01 04 12 00 00
  can0  080   [0] 
  can0  297   [8]  C0 01 00 00 AC CA 00 00
  can0  292   [8]  C0 01 00 00 C4 CA 00 00
  can0  293   [8]  C0 01 00 00 DA CA 00 00
  can0  294   [8]  E0 01 00 00 52 CB 00 00
  can0  295   [8]  A0 01 00 00 DA CA 00 00
  can0  296   [8]  E0 01 00 00 24 CB 00 00
  can0  394   [8]  0D B4 0B 00 1C 01 F3 0F
  can0  704   [1]  05
  can0  705   [1]  05
  can0  703   [1]  05
  can0  707   [1]  05
  can0  706   [1]  05
  can0  702   [1]  05
  can0  080   [0] 
  can0  296   [8]  A0 01 00 00 24 CB 00 00
  can0  292   [8]  E0 01 00 00 C4 CA 00 00
  can0  293   [8]  C0 01 00 00 DA CA 00 00
  can0  294   [8]  C0 01 00 00 52 CB 00 00
  can0  295   [8]  C0 01 00 00 F2 CA 00 00
  can0  297   [8]  C0 01 00 00 AC CA 00 00
  can0  704   [1]  05
  can0  703   [1]  05
  can0  705   [1]  05
  can0  707   [1]  05
  can0  192   [8]  C0 80 62 19 64 19 06 26
  can0  706   [1]  05
  can0  702   [1]  05
  can0  080   [0] 
  can0  297   [8]  C0 01 00 00 AC CA 00 00
  can0  292   [8]  C0 01 00 00 C4 CA 00 00
  can0  293   [8]  C0 01 00 00 DA CA 00 00
  can0  294   [8]  E0 01 00 00 52 CB 00 00
  can0  295   [8]  A0 01 00 00 F2 CA 00 00
  can0  296   [8]  A0 01 00 00 24 CB 00 00
  can0  704   [1]  05
  can0  705   [1]  05
  can0  703   [1]  05
  can0  707   [1]  05
  can0  706   [1]  05
  can0  702   [1]  05
  can0  080   [0] 
  can0  292   [8]  A0 01 00 00 DA CA 00 00
  can0  293   [8]  C0 01 00 00 DA CA 00 00
  can0  294   [8]  C0 01 00 00 52 CB 00 00
  can0  295   [8]  A0 01 00 00 F2 CA 00 00
  can0  296   [8]  A0 01 00 00 24 CB 00 00
  can0  297   [8]  A0 01 00 00 94 CA 00 00
  can0  397   [8]  68 24 0D 00 29 01 DF 11
  can0  704   [1]  05
  can0  705   [1]  05
  can0  703   [1]  05
  can0  193   [8]  40 80 62 19 64 19 06 26
  can0  196   [8]  C0 80 62 19 64 19 06 26
  can0  707   [1]  05
  can0  706   [1]  05
  can0  702   [1]  05
  can0  080   [0] 
  can0  296   [8]  A0 01 00 00 24 CB 00 00
  can0  292   [8]  C0 01 00 00 DA CA 00 00
  can0  293   [8]  A0 01 00 00 DA CA 00 00
  can0  294   [8]  00 02 00 00 52 CB 00 00
  can0  295   [8]  A0 01 00 00 F2 CA 00 00
  can0  297   [8]  C0 01 00 00 94 CA 00 00
  can0  704   [1]  05
  can0  705   [1]  05
  can0  703   [1]  05
  can0  181   [8]  00 80 10 27 10 27 10 27
  can0  281   [8]  00 00 00 00 00 00 00 00
  can0  707   [1]  05
  can0  194   [8]  C0 80 62 19 64 19 06 26
  can0  706   [1]  05
  can0  702   [1]  05
  can0  080   [0] 
  can0  295   [8]  A0 01 00 00 F2 CA 00 00
  can0  292   [8]  C0 01 00 00 DA CA 00 00
  can0  293   [8]  80 01 00 00 0C CB 00 00
  can0  294   [8]  C0 01 00 00 52 CB 00 00
  can0  296   [8]  C0 01 00 00 24 CB 00 00
  can0  297   [8]  C0 01 00 00 94 CA 00 00
  can0  704   [1]  05
  can0  705   [1]  05
  can0  703   [1]  05
  can0  707   [1]  05
  can0  706   [1]  05
  can0  702   [1]  05
  can0  080   [0] 
  can0  292   [8]  C0 01 00 00 DA CA 00 00
  can0  293   [8]  80 01 00 00 0C CB 00 00
  can0  294   [8]  E0 01 00 00 52 CB 00 00
  can0  295   [8]  A0 01 00 00 F2 CA 00 00
  can0  296   [8]  A0 01 00 00 24 CB 00 00
  can0  297   [8]  C0 01 00 00 94 CA 00 00
  can0  704   [1]  05
  can0  705   [1]  05
  can0  703   [1]  05
  can0  197   [8]  C0 80 62 19 64 19 06 26
  can0  707   [1]  05
  can0  706   [1]  05
  can0  702   [1]  05
  can0  080   [0] 
  can0  293   [8]  80 01 00 00 0C CB 00 00
  can0  292   [8]  C0 01 00 00 DA CA 00 00
  can0  294   [8]  E0 01 00 00 52 CB 00 00
  can0  295   [8]  A0 01 00 00 F2 CA 00 00
  can0  296   [8]  C0 01 00 00 24 CB 00 00
  can0  297   [8]  C0 01 00 00 94 CA 00 00
  can0  704   [1]  05
  can0  705   [1]  05
  can0  703   [1]  05
  can0  707   [1]  05
  can0  706   [1]  05
  can0  702   [1]  05
  can0  080   [0] 
  can0  293   [8]  80 01 00 00 0C CB 00 00
  can0  292   [8]  C0 01 00 00 DA CA 00 00
  can0  294   [8]  E0 01 00 00 52 CB 00 00
  can0  295   [8]  A0 01 00 00 F2 CA 00 00
  can0  296   [8]  E0 01 00 00 24 CB 00 00
  can0  297   [8]  C0 01 00 00 94 CA 00 00
  can0  704   [1]  05
  can0  705   [1]  05
  can0  703   [1]  05
  can0  707   [1]  05
  can0  706   [1]  05
  can0  702   [1]  05
  can0  080   [0] 
  can0  296   [8]  A0 01 00 00 0C CB 00 00
  can0  292   [8]  C0 01 00 00 DA CA 00 00
  can0  293   [8]  80 01 00 00 0C CB 00 00
  can0  294   [8]  E0 01 00 00 52 CB 00 00
  can0  295   [8]  A0 01 00 00 F2 CA 00 00
  can0  297   [8]  C0 01 00 00 94 CA 00 00
  can0  704   [1]  05
  can0  705   [1]  05
  can0  703   [1]  05
  can0  195   [8]  C0 80 62 19 64 19 06 26
  can0  707   [1]  05
  can0  706   [1]  05
  can0  702   [1]  05
  can0  606   [8]  40 64 61 01 00 00 00 00
  can0  586   [8]  4B 64 61 01 F0 10 00 00
  can0  080   [0] 
  can0  296   [8]  E0 01 00 00 0C CB 00 00
  can0  292   [8]  C0 01 00 00 DA CA 00 00
  can0  293   [8]  80 01 00 00 F2 CA 00 00
  can0  294   [8]  00 02 00 00 52 CB 00 00
  can0  295   [8]  C0 01 00 00 F2 CA 00 00
  can0  297   [8]  C0 01 00 00 94 CA 00 00
  can0  704   [1]  05
  can0  705   [1]  05
  can0  703   [1]  05
  can0  707   [1]  05
  can0  706   [1]  05
  can0  702   [1]  05
  can0  080   [0] 
  can0  294   [8]  C0 01 00 00 52 CB 00 00
  can0  292   [8]  C0 01 00 00 DA CA 00 00
  can0  293   [8]  80 01 00 00 F2 CA 00 00
  can0  295   [8]  A0 01 00 00 DA CA 00 00
  can0  296   [8]  C0 01 00 00 0C CB 00 00
  can0  297   [8]  C0 01 00 00 94 CA 00 00
  can0  704   [1]  05
  can0  705   [1]  05
  can0  703   [1]  05
  can0  707   [1]  05
  can0  192   [8]  C0 80 62 19 64 19 06 26
  can0  706   [1]  05
  can0  702   [1]  05
  can0  080   [0] 
  can0  295   [8]  A0 01 00 00 DA CA 00 00
  can0  292   [8]  E0 01 00 00 DA CA 00 00
  can0  293   [8]  80 01 00 00 F2 CA 00 00
  can0  294   [8]  00 02 00 00 52 CB 00 00
  can0  296   [8]  C0 01 00 00 0C CB 00 00
  can0  297   [8]  C0 01 00 00 94 CA 00 00
  can0  704   [1]  05
  can0  705   [1]  05
  can0  703   [1]  05
  can0  707   [1]  05
  can0  706   [1]  05
  can0  702   [1]  05
  can0  080   [0] 
  can0  296   [8]  C0 01 00 00 0C CB 00 00
  can0  292   [8]  C0 01 00 00 DA CA 00 00
  can0  293   [8]  60 01 00 00 F2 CA 00 00
  can0  294   [8]  E0 01 00 00 52 CB 00 00
  can0  295   [8]  A0 01 00 00 DA CA 00 00
  can0  297   [8]  C0 01 00 00 94 CA 00 00
  can0  704   [1]  05
  can0  705   [1]  05
  can0  703   [1]  05
  can0  193   [8]  40 80 62 19 64 19 06 26
  can0  196   [8]  C0 80 62 19 64 19 06 26
  can0  707   [1]  05
  can0  706   [1]  05
  can0  702   [1]  05
  can0  080   [0] 
  can0  295   [8]  A0 01 00 00 DA CA 00 00
  can0  292   [8]  C0 01 00 00 DA CA 00 00
  can0  293   [8]  80 01 00 00 F2 CA 00 00
  can0  294   [8]  E0 01 00 00 52 CB 00 00
  can0  296   [8]  E0 01 00 00 0C CB 00 00
  can0  297   [8]  C0 01 00 00 94 CA 00 00
  can0  704   [1]  05
  can0  705   [1]  05
  can0  703   [1]  05
  can0  181   [8]  00 80 10 27 10 27 10 27
  can0  281   [8]  00 00 00 00 00 00 00 00
  can0  707   [1]  05
  can0  194   [8]  C0 80 62 19 64 19 06 26
  can0  706   [1]  05
  can0  702   [1]  05
  can0  080   [0] 
  can0  297   [8]  C0 01 00 00 94 CA 00 00
  can0  292   [8]  C0 01 00 00 DA CA 00 00
  can0  293   [8]  60 01 00 00 F2 CA 00 00
  can0  294   [8]  C0 01 00 00 52 CB 00 00
  can0  295   [8]  C0 01 00 00 DA CA 00 00
  can0  296   [8]  C0 01 00 00 0C CB 00 00
  can0  704   [1]  05
  can0  705   [1]  05
  can0  703   [1]  05
  can0  707   [1]  05
  can0  706   [1]  05
  can0  702   [1]  05
  can0  080   [0] 
  can0  297   [8]  C0 01 00 00 94 CA 00 00
  can0  292   [8]  E0 01 00 00 DA CA 00 00
  can0  293   [8]  80 01 00 00 F2 CA 00 00
  can0  294   [8]  E0 01 00 00 3C CB 00 00
  can0  295   [8]  A0 01 00 00 DA CA 00 00
  can0  296   [8]  A0 01 00 00 0C CB 00 00
  can0  704   [1]  05
  can0  703   [1]  05
  can0  705   [1]  05
  can0  197   [8]  C0 80 62 19 64 19 06 26
  can0  707   [1]  05
  can0  706   [1]  05
  can0  702   [1]  05
  can0  080   [0] 
  can0  293   [8]  80 01 00 00 F2 CA 00 00
  can0  292   [8]  C0 01 00 00 DA CA 00 00
  can0  294   [8]  C0 01 00 00 3C CB 00 00
  can0  295   [8]  A0 01 00 00 DA CA 00 00
  can0  296   [8]  A0 01 00 00 0C CB 00 00
  can0  297   [8]  C0 01 00 00 94 CA 00 00
  can0  704   [1]  05
  can0  705   [1]  05
  can0  703   [1]  05
  can0  707   [1]  05
  can0  706   [1]  05
  can0  702   [1]  05
  can0  080   [0] 
  can0  294   [8]  E0 01 00 00 3C CB 00 00
  can0  292   [8]  C0 01 00 00 C4 CA 00 00
  can0  293   [8]  80 01 00 00 F2 CA 00 00
  can0  295   [8]  A0 01 00 00 DA CA 00 00
