  can0  707   [1]  05
  can0  705   [1]  05
  can0  706   [1]  05
  can0  080   [0] 
  can0  294   [8]  A0 01 00 00 42 CC 00 00
  can0  292   [8]  80 01 00 00 CA CB 00 00
  can0  293   [8]  A0 01 00 00 E2 CB 00 00
  can0  295   [8]  E0 01 00 00 E2 CB 00 00
  can0  296   [8]  E0 01 00 00 14 CC 00 00
  can0  297   [8]  C0 01 00 00 9C CB 00 00
  can0  702   [1]  05
  can0  704   [1]  05
  can0  703   [1]  05
  can0  707   [1]  05
  can0  705   [1]  05
  can0  706   [1]  05
  can0  080   [0] 
  can0  295   [8]  E0 01 00 00 E2 CB 00 00
  can0  292   [8]  A0 01 00 00 CA CB 00 00
  can0  293   [8]  A0 01 00 00 E2 CB 00 00
  can0  294   [8]  A0 01 00 00 42 CC 00 00
  can0  296   [8]  00 02 00 00 14 CC 00 00
  can0  297   [8]  C0 01 00 00 9C CB 00 00
  can0  702   [1]  05
  can0  704   [1]  05
  can0  703   [1]  05
  can0  707   [1]  05
  can0  194   [8]  C0 80 62 19 64 19 06 26
  can0  705   [1]  05
  can0  706   [1]  05
  can0  080   [0] 
  can0  296   [8]  E0 01 00 00 14 CC 00 00
  can0  292   [8]  A0 01 00 00 CA CB 00 00
  can0  293   [8]  A0 01 00 00 E2 CB 00 00
  can0  294   [8]  C0 01 00 00 42 CC 00 00
  can0  295   [8]  E0 01 00 00 E2 CB 00 00
  can0  297   [8]  C0 01 00 00 9C CB 00 00
  can0  702   [1]  05
  can0  704   [1]  05
  can0  703   [1]  05
  can0  197   [8]  C0 80 62 19 64 19 06 26
  can0  707   [1]  05
  can0  705   [1]  05
  can0  706   [1]  05
  can0  080   [0] 
  can0  292   [8]  A0 01 00 00 CA CB 00 00
  can0  293   [8]  A0 01 00 00 E2 CB 00 00
  can0  294   [8]  A0 01 00 00 2C CC 00 00
  can0  295   [8]  E0 01 00 00 E2 CB 00 00
  can0  296   [8]  C0 01 00 00 14 CC 00 00
  can0  297   [8]  C0 01 00 00 9C CB 00 00
  can0  702   [1]  05
  can0  704   [1]  05
  can0  703   [1]  05
  can0  195   [8]  C0 80 62 19 64 19 06 26
  can0  707   [1]  05
  can0  705   [1]  05
  can0  706   [1]  05
  can0  080   [0] 
  can0  292   [8]  80 01 00 00 CA CB 00 00
  can0  293   [8]  A0 01 00 00 E2 CB 00 00
  can0  294   [8]  A0 01 00 00 2C CC 00 00
  can0  295   [8]  E0 01 00 00 CA CB 00 00
  can0  296   [8]  C0 01 00 00 14 CC 00 00
  can0  297   [8]  C0 01 00 00 6A CB 00 00
  can0  702   [1]  05
  can0  704   [1]  05
  can0  703   [1]  05
  can0  193   [8]  C0 80 62 19 64 19 06 26
  can0  196   [8]  C0 80 62 19 64 19 06 26
  can0  707   [1]  05
  can0  705   [1]  05
  can0  706   [1]  05
  can0  080   [0] 
  can0  295   [8]  E0 01 00 00 CA CB 00 00
  can0  292   [8]  A0 01 00 00 CA CB 00 00
  can0  293   [8]  A0 01 00 00 E2 CB 00 00
  can0  294   [8]  C0 01 00 00 2C CC 00 00
  can0  296   [8]  00 02 00 00 14 CC 00 00
  can0  297   [8]  C0 01 00 00 6A CB 00 00
  can0  394   [8]  76 4D 09 00 0D 01 AC 0C
  can0  702   [1]  05
  can0  704   [1]  05
  can0  703   [1]  05
  can0  707   [1]  05
  can0  705   [1]  05
  can0  706   [1]  05
  can0  080   [0] 
  can0  292   [8]  C0 01 00 00 CA CB 00 00
  can0  293   [8]  A0 01 00 00 CA CB 00 00
  can0  294   [8]  C0 01 00 00 2C CC 00 00
  can0  295   [8]  E0 01 00 00 CA CB 00 00
  can0  296   [8]  C0 01 00 00 FC CB 00 00
  can0  297   [8]  C0 01 00 00 6A CB 00 00
  can0  702   [1]  05
  can0  704   [1]  05
  can0  703   [1]  05
  can0  707   [1]  05
  can0  705   [1]  05
  can0  706   [1]  05
  can0  192   [8]  C0 80 62 19 64 19 06 26
  can0  080   [0] 
  can0  295   [8]  E0 01 00 00 CA CB 00 00
  can0  292   [8]  A0 01 00 00 CA CB 00 00
  can0  293   [8]  A0 01 00 00 CA CB 00 00
  can0  294   [8]  C0 01 00 00 2C CC 00 00
  can0  296   [8]  E0 01 00 00 FC CB 00 00
  can0  297   [8]  C0 01 00 00 6A CB 00 00
  can0  702   [1]  05
  can0  704   [1]  05
  can0  703   [1]  05
  can0  707   [1]  05
  can0  705   [1]  05
  can0  706   [1]  05
  can0  080   [0] 
  can0  292   [8]  A0 01 00 00 CA CB 00 00
  can0  293   [8]  80 01 00 00 CA CB 00 00
  can0  294   [8]  A0 01 00 00 42 CC 00 00
  can0  295   [8]  E0 01 00 00 CA CB 00 00
  can0  296   [8]  C0 01 00 00 FC CB 00 00
  can0  297   [8]  C0 01 00 00 6A CB 00 00
  can0  397   [8]  2D 62 0A 00 19 01 22 0E
  can0  7E5   [8]  4C 00 00 00 00 00 00 00
  can0  702   [1]  05
  can0  704   [1]  05
  can0  703   [1]  05
  can0  707   [1]  05
  can0  705   [1]  05
  can0  706   [1]  05
  can0  080   [0] 
  can0  292   [8]  C0 01 00 00 CA CB 00 00
  can0  293   [8]  80 01 00 00 CA CB 00 00
  can0  294   [8]  C0 01 00 00 42 CC 00 00
  can0  295   [8]  E0 01 00 00 E2 CB 00 00
  can0  296   [8]  00 02 00 00 FC CB 00 00
  can0  297   [8]  C0 01 00 00 84 CB 00 00
  can0  702   [1]  05
  can0  704   [1]  05
  can0  703   [1]  05
  can0  181   [8]  00 80 10 27 10 27 10 27
  can0  281   [8]  00 00 00 00 00 00 00 00
  can0  707   [1]  05
  can0  705   [1]  05
  can0  706   [1]  05
  can0  080   [0] 
  can0  292   [8]  A0 01 00 00 CA CB 00 00
  can0  293   [8]  A0 01 00 00 CA CB 00 00
  can0  294   [8]  C0 01 00 00 42 CC 00 00
  can0  295   [8]  E0 01 00 00 E2 CB 00 00
  can0  296   [8]  C0 01 00 00 FC CB 00 00
  can0  297   [8]  C0 01 00 00 84 CB 00 00
  can0  702   [1]  05
  can0  704   [1]  05
  can0  703   [1]  05
  can0  707   [1]  05
  can0  705   [1]  05
  can0  706   [1]  05
  can0  080   [0] 
  can0  294   [8]  A0 01 00 00 42 CC 00 00
  can0  292   [8]  A0 01 00 00 CA CB 00 00
  can0  293   [8]  A0 01 00 00 FC CB 00 00
  can0  295   [8]  E0 01 00 00 E2 CB 00 00
  can0  296   [8]  E0 01 00 00 2C CC 00 00
  can0  297   [8]  C0 01 00 00 84 CB 00 00
  can0  702   [1]  05
  can0  704   [1]  05
  can0  703   [1]  05
  can0  707   [1]  05
  can0  194   [8]  C0 80 62 19 64 19 06 26
  can0  705   [1]  05
  can0  706   [1]  05
  can0  080   [0] 
  can0  295   [8]  E0 01 00 00 E2 CB 00 00
  can0  292   [8]  A0 01 00 00 CA CB 00 00
  can0  293   [8]  A0 01 00 00 FC CB 00 00
  can0  294   [8]  A0 01 00 00 42 CC 00 00
  can0  296   [8]  00 02 00 00 2C CC 00 00
  can0  297   [8]  C0 01 00 00 84 CB 00 00
  can0  702   [1]  05
  can0  704   [1]  05
  can0  703   [1]  05
  can0  197   [8]  C0 80 62 19 64 19 06 26
  can0  707   [1]  05
  can0  705   [1]  05
  can0  706   [1]  05
  can0  080   [0] 
  can0  293   [8]  80 01 00 00 FC CB 00 00
  can0  292   [8]  80 01 00 00 CA CB 00 00
  can0  294   [8]  A0 01 00 00 42 CC 00 00
  can0  295   [8]  E0 01 00 00 E2 CB 00 00
  can0  296   [8]  C0 01 00 00 2C CC 00 00
  can0  297   [8]  C0 01 00 00 84 CB 00 00
  can0  702   [1]  05
  can0  704   [1]  05
  can0  703   [1]  05
  can0  195   [8]  C0 80 62 19 64 19 06 26
  can0  707   [1]  05
  can0  705   [1]  05
  can0  706   [1]  05
  can0  080   [0] 
  can0  297   [8]  C0 01 00 00 9C CB 00 00
  can0  292   [8]  A0 01 00 00 B4 CB 00 00
  can0  293   [8]  A0 01 00 00 FC CB 00 00
  can0  294   [8]  A0 01 00 00 42 CC 00 00
  can0  295   [8]  E0 01 00 00 E2 CB 00 00
  can0  296   [8]  C0 01 00 00 2C CC 00 00
  can0  702   [1]  05
  can0  704   [1]  05
  can0  703   [1]  05
  can0  193   [8]  C0 80 62 19 64 19 06 26
  can0  196   [8]  C0 80 62 19 64 19 06 26
  can0  707   [1]  05
  can0  705   [1]  05
  can0  706   [1]  05
  can0  080   [0] 
  can0  294   [8]  80 01 00 00 42 CC 00 00
  can0  292   [8]  A0 01 00 00 B4 CB 00 00
  can0  293   [8]  A0 01 00 00 FC CB 00 00
  can0  295   [8]  E0 01 00 00 E2 CB 00 00
  can0  296   [8]  00 02 00 00 2C CC 00 00
  can0  297   [8]  C0 01 00 00 9C CB 00 00
  can0  702   [1]  05
  can0  704   [1]  05
  can0  703   [1]  05
  can0  707   [1]  05
  can0  705   [1]  05
  can0  706   [1]  05
  can0  080   [0] 
  can0  294   [8]  80 01 00 00 42 CC 00 00
  can0  292   [8]  A0 01 00 00 B4 CB 00 00
  can0  293   [8]  A0 01 00 00 FC CB 00 00
  can0  295   [8]  E0 01 00 00 E2 CB 00 00
  can0  296   [8]  E0 01 00 00 FC CB 00 00
  can0  297   [8]  C0 01 00 00 9C CB 00 00
  can0  702   [1]  05
  can0  704   [1]  05
  can0  703   [1]  05
  can0  707   [1]  05
  can0  705   [1]  05
  can0  706   [1]  05
  can0  192   [8]  C0 80 62 19 64 19 06 26
  can0  080   [0] 
  can0  292   [8]  80 01 00 00 B4 CB 00 00
  can0  293   [8]  A0 01 00 00 FC CB 00 00
  can0  294   [8]  A0 01 00 00 42 CC 00 00
  can0  295   [8]  C0 01 00 00 E2 CB 00 00
  can0  296   [8]  C0 01 00 00 FC CB 00 00
  can0  297   [8]  C0 01 00 00 9C CB 00 00
  can0  702   [1]  05
  can0  704   [1]  05
  can0  703   [1]  05
  can0  707   [1]  05
  can0  705   [1]  05
  can0  706   [1]  05
  can0  080   [0] 
  can0  297   [8]  A0 01 00 00 9C CB 00 00
  can0  292   [8]  C0 01 00 00 B4 CB 00 00
  can0  293   [8]  80 01 00 00 FC CB 00 00
  can0  294   [8]  80 01 00 00 42 CC 00 00
  can0  295   [8]  E0 01 00 00 E2 CB 00 00
  can0  296   [8]  E0 01 00 00 FC CB 00 00
  can0  702   [1]  05
  can0  704   [1]  05
  can0  703   [1]  05
  can0  707   [1]  05
  can0  705   [1]  05
  can0  706   [1]  05
  can0  080   [0] 
  can0  296   [8]  E0 01 00 00 FC CB 00 00
  can0  292   [8]  80 01 00 00 B4 CB 00 00
  can0  293   [8]  80 01 00 00 FC CB 00 00
  can0  294   [8]  A0 01 00 00 42 CC 00 00
  can0  295   [8]  C0 01 00 00 E2 CB 00 00
  can0  297   [8]  C0 01 00 00 84 CB 00 00
  can0  702   [1]  05
  can0  704   [1]  05
  can0  703   [1]  05
  can0  181   [8]  00 80 10 27 10 27 10 27
  can0  281   [8]  00 00 00 00 00 00 00 00
  can0  707   [1]  05
  can0  705   [1]  05
  can0  706   [1]  05
  can0  080   [0] 
  can0  292   [8]  A0 01 00 00 B4 CB 00 00
  can0  293   [8]  80 01 00 00 FC CB 00 00
  can0  294   [8]  80 01 00 00 42 CC 00 00
  can0  295   [8]  E0 01 00 00 E2 CB 00 00
  can0  296   [8]  E0 01 00 00 FC CB 00 00
  can0  297   [8]  C0 01 00 00 84 CB 00 00
  can0  702   [1]  05
  can0  704   [1]  05
  can0  703   [1]  05
  can0  707   [1]  05
  can0  705   [1]  05
  can0  706   [1]  05
  can0  080   [0] 
  can0  295   [8]  E0 01 00 00 E2 CB 00 00
  can0  292   [8]  80 01 00 00 B4 CB 00 00
  can0  293   [8]  A0 01 00 00 E2 CB 00 00
  can0  294   [8]  C0 01 00 00 42 CC 00 00
  can0  296   [8]  00 02 00 00 FC CB 00 00
  can0  297   [8]  C0 01 00 00 84 CB 00 00
  can0  702   [1]  05
  can0  704   [1]  05
  can0  703   [1]  05
  can0  707   [1]  05
  can0  194   [8]  C0 80 62 19 64 19 06 26
  can0  705   [1]  05
  can0  706   [1]  05
  can0  080   [0] 
  can0  292   [8]  A0 01 00 00 B4 CB 00 00
  can0  293   [8]  A0 01 00 00 E2 CB 00 00
  can0  294   [8]  C0 01 00 00 42 CC 00 00
  can0  295   [8]  E0 01 00 00 E2 CB 00 00
  can0  296   [8]  C0 01 00 00 FC CB 00 00
  can0  297   [8]  C0 01 00 00 84 CB 00 00
  can0  702   [1]  05
  can0  704   [1]  05
  can0  703   [1]  05
  can0  197   [8]  C0 80 62 19 64 19 06 26
  can0  707   [1]  05
  can0  705   [1]  05
  can0  706   [1]  05
  can0  080   [0] 
  can0  292   [8]  C0 01 00 00 B4 CB 00 00
  can0  293   [8]  A0 01 00 00 E2 CB 00 00
  can0  294   [8]  C0 01 00 00 42 CC 00 00
  can0  295   [8]  E0 01 00 00 E2 CB 00 00
  can0  296   [8]  C0 01 00 00 FC CB 00 00
  can0  297   [8]  C0 01 00 00 84 CB 00 00
  can0  702   [1]  05
  can0  704   [1]  05
  can0  703   [1]  05
  can0  195   [8]  C0 80 62 19 64 19 06 26
  can0  707   [1]  05
  can0  705   [1]  05
  can0  706   [1]  05
  can0  080   [0] 
  can0  293   [8]  A0 01 00 00 E2 CB 00 00
  can0  292   [8]  80 01 00 00 CA CB 00 00
  can0  294   [8]  A0 01 00 00 42 CC 00 00
  can0  295   [8]  E0 01 00 00 CA CB 00 00
  can0  296   [8]  E0 01 00 00 FC CB 00 00
  can0  297   [8]  C0 01 00 00 84 CB 00 00
  can0  702   [1]  05
  can0  704   [1]  05
  can0  703   [1]  05
  can0  193   [8]  C0 80 62 19 64 19 06 26
  can0  196   [8]  C0 80 62 19 64 19 06 26
  can0  707   [1]  05
  can0  705   [1]  05
  can0  706   [1]  05
  can0  080   [0] 
  can0  292   [8]  A0 01 00 00 CA CB 00 00
  can0  293   [8]  A0 01 00 00 E2 CB 00 00
  can0  294   [8]  C0 01 00 00 42 CC 00 00
  can0  295   [8]  E0 01 00 00 CA CB 00 00
  can0  296   [8]  00 02 00 00 FC CB 00 00
  can0  297   [8]  C0 01 00 00 84 CB 00 00
  can0  702   [1]  05
  can0  704   [1]  05
  can0  703   [1]  05
  can0  707   [1]  05
  can0  705   [1]  05
  can0  706   [1]  05
  can0  080   [0] 
  can0  292   [8]  80 01 00 00 CA CB 00 00
  can0  293   [8]  80 01 00 00 FC CB 00 00
  can0  294   [8]  A0 01 00 00 42 CC 00 00
  can0  295   [8]  E0 01 00 00 CA CB 00 00
  can0  296   [8]  E0 01 00 00 FC CB 00 00
  can0  297   [8]  C0 01 00 00 84 CB 00 00
  can0  702   [1]  05
  can0  704   [1]  05
  can0  703   [1]  05
  can0  707   [1]  05
  can0  705   [1]  05
  can0  706   [1]  05
  can0  192   [8]  C0 80 62 19 64 19 06 26
  can0  080   [0] 
  can0  295   [8]  C0 01 00 00 CA CB 00 00
  can0  292   [8]  80 01 00 00 CA CB 00 00
  can0  293   [8]  A0 01 00 00 FC CB 00 00
  can0  294   [8]  C0 01 00 00 42 CC 00 00
  can0  296   [8]  C0 01 00 00 FC CB 00 00
  can0  297   [8]  C0 01 00 00 84 CB 00 00
  can0  702   [1]  05
  can0  704   [1]  05
  can0  703   [1]  05
  can0  707   [1]  05
  can0  705   [1]  05
  can0  706   [1]  05
  can0  080   [0] 
  can0  295   [8]  C0 01 00 00 CA CB 00 00
  can0  292   [8]  A0 01 00 00 CA CB 00 00
  can0  293   [8]  A0 01 00 00 FC CB 00 00
  can0  294   [8]  A0 01 00 00 42 CC 00 00
  can0  296   [8]  E0 01 00 00 FC CB 00 00
  can0  297   [8]  C0 01 00 00 84 CB 00 00
  can0  702   [1]  05
  can0  704   [1]  05
  can0  703   [1]  05
  can0  707   [1]  05
  can0  705   [1]  05
  can0  706   [1]  05
  can0  080   [0] 
  can0  292   [8]  A0 01 00 00 CA CB 00 00
  can0  293   [8]  A0 01 00 00 FC CB 00 00
  can0  294   [8]  A0 01 00 00 42 CC 00 00
  can0  295   [8]  C0 01 00 00 E2 CB 00 00
  can0  296   [8]  E0 01 00 00 FC CB 00 00
  can0  297   [8]  A0 01 00 00 84 CB 00 00
  can0  392   [8]  AC E3 09 00 11 01 39 0C
  can0  702   [1]  05
  can0  704   [1]  05
  can0  703   [1]  05
  can0  181   [8]  00 80 10 27 10 27 10 27
  can0  281   [8]  00 00 00 00 00 00 00 00
  can0  707   [1]  05
  can0  705   [1]  05
  can0  706   [1]  05
  can0  080   [0] 
  can0  297   [8]  C0 01 00 00 84 CB 00 00
  can0  292   [8]  A0 01 00 00 CA CB 00 00
  can0  293   [8]  A0 01 00 00 FC CB 00 00
  can0  294   [8]  A0 01 00 00 42 CC 00 00
  can0  295   [8]  C0 01 00 00 E2 CB 00 00
  can0  296   [8]  E0 01 00 00 FC CB 00 00
  can0  702   [1]  05
  can0  704   [1]  05
  can0  703   [1]  05
  can0  707   [1]  05
  can0  705   [1]  05
  can0  706   [1]  05
  can0  080   [0] 
  can0  293   [8]  A0 01 00 00 E2 CB 00 00
  can0  292   [8]  A0 01 00 00 CA CB 00 00
  can0  294   [8]  C0 01 00 00 42 CC 00 00
  can0  295   [8]  C0 01 00 00 E2 CB 00 00
  can0  296   [8]  E0 01 00 00 14 CC 00 00
  can0  297   [8]  C0 01 00 00 84 CB 00 00
  can0  702   [1]  05
  can0  704   [1]  05
  can0  703   [1]  05
  can0  707   [1]  05
  can0  194   [8]  C0 80 62 19 64 19 06 26
  can0  705   [1]  05
  can0  706   [1]  05
  can0  080   [0] 
  can0  294   [8]  C0 01 00 00 42 CC 00 00
  can0  292   [8]  A0 01 00 00 CA CB 00 00
  can0  293   [8]  A0 01 00 00 E2 CB 00 00
  can0  295   [8]  E0 01 00 00 E2 CB 00 00
  can0  296   [8]  E0 01 00 00 14 CC 00 00
  can0  297   [8]  C0 01 00 00 84 CB 00 00
  can0  395   [8]  B7 71 0A 00 11 01 3E 0E
  can0  702   [1]  05
  can0  704   [1]  05
  can0  703   [1]  05
  can0  197   [8]  C0 80 62 19 64 19 06 26
  can0  707   [1]  05
  can0  705   [1]  05
  can0  706   [1]  05
  can0  080   [0] 
  can0  297   [8]  C0 01 00 00 84 CB 00 00
  can0  292   [8]  80 01 00 00 CA CB 00 00
  can0  293   [8]  A0 01 00 00 E2 CB 00 00
  can0  294   [8]  A0 01 00 00 42 CC 00 00
  can0  295   [8]  E0 01 00 00 E2 CB 00 00
  can0  296   [8]  C0 01 00 00 14 CC 00 00
  can0  702   [1]  05
  can0  704   [1]  05
  can0  703   [1]  05
  can0  195   [8]  C0 80 62 19 64 19 06 26
  can0  707   [1]  05
  can0  705   [1]  05
  can0  706   [1]  05
  can0  080   [0] 
  can0  297   [8]  C0 01 00 00 84 CB 00 00
  can0  292   [8]  A0 01 00 00 CA CB 00 00
  can0  293   [8]  A0 01 00 00 E2 CB 00 00
  can0  294   [8]  A0 01 00 00 42 CC 00 00
  can0  295   [8]  C0 01 00 00 CA CB 00 00
  can0  296   [8]  E0 01 00 00 14 CC 00 00
  can0  702   [1]  05
  can0  704   [1]  05
  can0  703   [1]  05
  can0  193   [8]  C0 80 62 19 64 19 06 26
  can0  196   [8]  C0 80 62 19 64 19 06 26
  can0  707   [1]  05
  can0  705   [1]  05
  can0  706   [1]  05
  can0  080   [0] 
  can0  294   [8]  A0 01 00 00 42 CC 00 00
  can0  292   [8]  A0 01 00 00 CA CB 00 00
  can0  293   [8]  A0 01 00 00 E2 CB 00 00
  can0  295   [8]  E0 01 00 00 CA CB 00 00
  can0  296   [8]  E0 01 00 00 14 CC 00 00
  can0  297   [8]  C0 01 00 00 84 CB 00 00
  can0  702   [1]  05
  can0  704   [1]  05
  can0  703   [1]  05
  can0  707   [1]  05
  can0  705   [1]  05
  can0  706   [1]  05
  can0  080   [0] 
  can0  295   [8]  C0 01 00 00 CA CB 00 00
  can0  292   [8]  A0 01 00 00 CA CB 00 00
  can0  293   [8]  A0 01 00 00 E2 CB 00 00
  can0  294   [8]  A0 01 00 00 42 CC 00 00
  can0  296   [8]  C0 01 00 00 14 CC 00 00
  can0  297   [8]  C0 01 00 00 84 CB 00 00
  can0  702   [1]  05
  can0  704   [1]  05
  can0  703   [1]  05
  can0  707   [1]  05
  can0  705   [1]  05
  can0  706   [1]  05
  can0  192   [8]  C0 80 62 19 64 19 06 26
  can0  080   [0] 
  can0  294   [8]  A0 01 00 00 42 CC 00 00
  can0  292   [8]  A0 01 00 00 CA CB 00 00
  can0  293   [8]  80 01 00 00 E2 CB 00 00
  can0  295   [8]  E0 01 00 00 CA CB 00 00
  can0  296   [8]  00 02 00 00 14 CC 00 00
  can0  297   [8]  A0 01 00 00 84 CB 00 00
  can0  702   [1]  05
  can0  704   [1]  05
  can0  703   [1]  05
  can0  707   [1]  05
  can0  705   [1]  05
  can0  706   [1]  05
  can0  080   [0] 
  can0  296   [8]  00 02 00 00 14 CC 00 00
  can0  292   [8]  A0 01 00 00 CA CB 00 00
  can0  293   [8]  A0 01 00 00 E2 CB 00 00
  can0  294   [8]  A0 01 00 00 42 CC 00 00
  can0  295   [8]  C0 01 00 00 CA CB 00 00
  can0  297   [8]  C0 01 00 00 84 CB 00 00
  can0  702   [1]  05
  can0  704   [1]  05
  can0  703   [1]  05
  can0  707   [1]  05
  can0  705   [1]  05
  can0  706   [1]  05
  can0  080   [0] 
  can0  293   [8]  80 01 00 00 E2 CB 00 00
  can0  292   [8]  A0 01 00 00 CA CB 00 00
  can0  294   [8]  A0 01 00 00 42 CC 00 00
  can0  295   [8]  C0 01 00 00 E2 CB 00 00
  can0  296   [8]  E0 01 00 00 14 CC 00 00
  can0  297   [8]  C0 01 00 00 9C CB 00 00
  can0  702   [1]  05
  can0  704   [1]  05
  can0  703   [1]  05
  can0  181   [8]  00 80 10 27 10 27 10 27
  can0  281   [8]  00 00 00 00 00 00 00 00
  can0  707   [1]  05
  can0  705   [1]  05
  can0  706   [1]  05
  can0  080   [0] 
  can0  293   [8]  80 01 00 00 E2 CB 00 00
  can0  292   [8]  C0 01 00 00 CA CB 00 00
  can0  294   [8]  A0 01 00 00 42 CC 00 00
  can0  295   [8]  E0 01 00 00 E2 CB 00 00
  can0  296   [8]  C0 01 00 00 14 CC 00 00
  can0  297   [8]  C0 01 00 00 9C CB 00 00
  can0  702   [1]  05
  can0  704   [1]  05
  can0  703   [1]  05
  can0  602   [8]  40 10 20 00 00 00 00 00
  can0  707   [1]  05
  can0  582   [8]  4F 10 20 00 02 00 00 00
  can0  602   [8]  40 2C 1F 01 00 00 00 00
  can0  582   [8]  43 2C 1F 01 01 00 02 00
  can0  602   [8]  E0 02 00 02 00 00 00 00
  can0  582   [8]  E0 02 00 02 00 00 00 00
  can0  602   [8]  40 18 10 01 00 00 00 00
  can0  705   [1]  05
  can0  706   [1]  05
  can0  080   [0] 
  can0  293   [8]  80 01 00 00 E2 CB 00 00
  can0  292   [8]  A0 01 00 00 CA CB 00 00
  can0  294   [8]  A0 01 00 00 42 CC 00 00
  can0  295   [8]  E0 01 00 00 E2 CB 00 00
  can0  296   [8]  E0 01 00 00 FC CB 00 00
  can0  297   [8]  C0 01 00 00 9C CB 00 00
  can0  702   [1]  05
  can0  704   [1]  05
  can0  703   [1]  05
  can0  707   [1]  05
  can0  194   [8]  C0 80 62 19 64 19 06 26
  can0  705   [1]  05
  can0  706   [1]  05
  can0  080   [0] 
  can0  294   [8]  A0 01 00 00 42 CC 00 00
  can0  292   [8]  A0 01 00 00 CA CB 00 00
  can0  293   [8]  A0 01 00 00 E2 CB 00 00
  can0  295   [8]  00 02 00 00 E2 CB 00 00
  can0  296   [8]  C0 01 00 00 FC CB 00 00
  can0  297   [8]  C0 01 00 00 9C CB 00 00
  can0  702   [1]  05
  can0  704   [1]  05
  can0  703   [1]  05
  can0  197   [8]  C0 80 62 19 64 19 06 26
  can0  707   [1]  05
  can0  705   [1]  05
  can0  706   [1]  05
  can0  080   [0] 
  can0  295   [8]  E0 01 00 00 E2 CB 00 00
  can0  292   [8]  A0 01 00 00 CA CB 00 00
  can0  293   [8]  A0 01 00 00 E2 CB 00 00
  can0  294   [8]  C0 01 00 00 42 CC 00 00
  can0  296   [8]  E0 01 00 00 FC CB 00 00
  can0  297   [8]  C0 01 00 00 9C CB 00 00
  can0  702   [1]  05
  can0  704   [1]  05
  can0  703   [1]  05
  can0  195   [8]  C0 80 62 19 64 19 06 26
  can0  707   [1]  05
  can0  705   [1]  05
  can0  706   [1]  05
  can0  080   [0] 
  can0  292   [8]  A0 01 00 00 CA CB 00 00
  can0  293   [8]  A0 01 00 00 E2 CB 00 00
  can0  294   [8]  A0 01 00 00 42 CC 00 00
  can0  295   [8]  E0 01 00 00 E2 CB 00 00
  can0  296   [8]  E0 01 00 00 FC CB 00 00
  can0  297   [8]  C0 01 00 00 84 CB 00 00
  can0  702   [1]  05
  can0  704   [1]  05
  can0  703   [1]  05
  can0  193   [8]  C0 80 62 19 64 19 06 26
  can0  196   [8]  C0 80 62 19 64 19 06 26
  can0  582   [8]  43 18 10 01 C9 03 00 00
  can0  602   [8]  E0 02 00 02 00 00 00 00
  can0  582   [8]  E0 02 00 02 00 00 00 00
  can0  707   [1]  05
  can0  602   [8]  40 18 10 02 00 00 00 00
  can0  705   [1]  05
  can0  706   [1]  05
  can0  080   [0] 
  can0  292   [8]  C0 01 00 00 CA CB 00 00
  can0  293   [8]  A0 01 00 00 E2 CB 00 00
  can0  294   [8]  C0 01 00 00 42 CC 00 00
  can0  295   [8]  E0 01 00 00 E2 CB 00 00
  can0  296   [8]  00 02 00 00 FC CB 00 00
  can0  297   [8]  C0 01 00 00 84 CB 00 00
  can0  702   [1]  05
  can0  704   [1]  05
  can0  703   [1]  05
  can0  707   [1]  05
  can0  705   [1]  05
  can0  706   [1]  05
  can0  080   [0] 
  can0  293   [8]  80 01 00 00 FC CB 00 00
  can0  292   [8]  C0 01 00 00 CA CB 00 00
  can0  294   [8]  A0 01 00 00 42 CC 00 00
  can0  295   [8]  E0 01 00 00 E2 CB 00 00
  can0  296   [8]  E0 01 00 00 14 CC 00 00
  can0  297   [8]  C0 01 00 00 84 CB 00 00
  can0  702   [1]  05
  can0  704   [1]  05
  can0  703   [1]  05
  can0  707   [1]  05
  can0  705   [1]  05
  can0  706   [1]  05
  can0  192   [8]  C0 80 62 19 64 19 06 26
  can0  080   [0] 
  can0  295   [8]  E0 01 00 00 E2 CB 00 00
  can0  292   [8]  80 01 00 00 CA CB 00 00
  can0  293   [8]  A0 01 00 00 FC CB 00 00
  can0  294   [8]  A0 01 00 00 42 CC 00 00
  can0  296   [8]  E0 01 00 00 14 CC 00 00
  can0  297   [8]  C0 01 00 00 84 CB 00 00
  can0  702   [1]  05
  can0  704   [1]  05
  can0  703   [1]  05
  can0  707   [1]  05
  can0  705   [1]  05
  can0  706   [1]  05
  can0  080   [0] 
  can0  296   [8]  E0 01 00 00 14 CC 00 00
  can0  292   [8]  80 01 00 00 CA CB 00 00
  can0  293   [8]  80 01 00 00 FC CB 00 00
  can0  294   [8]  A0 01 00 00 42 CC 00 00
  can0  295   [8]  C0 01 00 00 E2 CB 00 00
  can0  297   [8]  C0 01 00 00 84 CB 00 00
  can0  702   [1]  05
  can0  582   [8]  43 18 10 02 14 00 00 00
  can0  602   [8]  E0 02 00 02 00 00 00 00
  can0  582   [8]  E0 02 00 02 00 00 00 00
  can0  704   [1]  05
  can0  703   [1]  05
  can0  602   [8]  40 18 10 03 00 00 00 00
  can0  707   [1]  05
  can0  705   [1]  05
  can0  706   [1]  05
  can0  080   [0] 
  can0  295   [8]  E0 01 00 00 E2 CB 00 00
  can0  292   [8]  A0 01 00 00 E2 CB 00 00
  can0  293   [8]  C0 01 00 00 FC CB 00 00
  can0  294   [8]  C0 01 00 00 42 CC 00 00
  can0  296   [8]  E0 01 00 00 14 CC 00 00
  can0  297   [8]  C0 01 00 00 84 CB 00 00
  can0  702   [1]  05
  can0  704   [1]  05
  can0  703   [1]  05
  can0  181   [8]  00 80 10 27 10 27 10 27
  can0  281   [8]  00 00 00 00 00 00 00 00
  can0  707   [1]  05
  can0  705   [1]  05
  can0  706   [1]  05
  can0  080   [0] 
  can0  294   [8]  C0 01 00 00 42 CC 00 00
  can0  292   [8]  A0 01 00 00 E2 CB 00 00
  can0  293   [8]  A0 01 00 00 FC CB 00 00
  can0  295   [8]  C0 01 00 00 E2 CB 00 00
  can0  296   [8]  C0 01 00 00 14 CC 00 00
  can0  297   [8]  C0 01 00 00 84 CB 00 00
  can0  702   [1]  05
  can0  704   [1]  05
  can0  703   [1]  05
  can0  707   [1]  05
  can0  705   [1]  05
  can0  706   [1]  05
  can0  080   [0] 
  can0  297   [8]  C0 01 00 00 84 CB 00 00
  can0  292   [8]  A0 01 00 00 E2 CB 00 00
  can0  293   [8]  A0 01 00 00 FC CB 00 00
  can0  294   [8]  A0 01 00 00 42 CC 00 00
  can0  295   [8]  E0 01 00 00 E2 CB 00 00
  can0  296   [8]  E0 01 00 00 14 CC 00 00
  can0  702   [1]  05
  can0  704   [1]  05
  can0  703   [1]  05
  can0  707   [1]  05
  can0  582   [8]  43 18 10 03 02 30 01 03
  can0  602   [8]  E0 02 00 02 00 00 00 00
  can0  582   [8]  E0 02 00 02 00 00 00 00
  can0  194   [8]  C0 80 62 19 64 19 06 26
  can0  705   [1]  05
  can0  706   [1]  05
  can0  080   [0] 
  can0  294   [8]  A0 01 00 00 42 CC 00 00
  can0  292   [8]  A0 01 00 00 E2 CB 00 00
  can0  293   [8]  80 01 00 00 FC CB 00 00
  can0  295   [8]  C0 01 00 00 E2 CB 00 00
  can0  296   [8]  E0 01 00 00 14 CC 00 00
  can0  297   [8]  C0 01 00 00 84 CB 00 00
  can0  602   [8]  40 18 10 04 00 00 00 00
  can0  702   [1]  05
  can0  704   [1]  05
  can0  703   [1]  05
  can0  197   [8]  C0 80 62 19 64 19 06 26
  can0  707   [1]  05
  can0  705   [1]  05
  can0  706   [1]  05
  can0  080   [0] 
  can0  292   [8]  A0 01 00 00 E2 CB 00 00
  can0  293   [8]  A0 01 00 00 FC CB 00 00
  can0  294   [8]  A0 01 00 00 5A CC 00 00
  can0  295   [8]  E0 01 00 00 E2 CB 00 00
  can0  296   [8]  00 02 00 00 14 CC 00 00
  can0  297   [8]  C0 01 00 00 84 CB 00 00
  can0  702   [1]  05
  can0  704   [1]  05
  can0  703   [1]  05
  can0  195   [8]  C0 80 62 19 64 19 06 26
  can0  707   [1]  05
  can0  705   [1]  05
  can0  706   [1]  05
  can0  080   [0] 
  can0  296   [8]  E0 01 00 00 14 CC 00 00
  can0  292   [8]  C0 01 00 00 CA CB 00 00
  can0  293   [8]  80 01 00 00 FC CB 00 00
  can0  294   [8]  C0 01 00 00 5A CC 00 00
  can0  295   [8]  E0 01 00 00 E2 CB 00 00
  can0  297   [8]  C0 01 00 00 84 CB 00 00
  can0  702   [1]  05
  can0  704   [1]  05
  can0  703   [1]  05
  can0  193   [8]  C0 80 62 19 64 19 06 26
  can0  196   [8]  C0 80 62 19 64 19 06 26
  can0  707   [1]  05
  can0  705   [1]  05
  can0  706   [1]  05
  can0  080   [0] 
  can0  296   [8]  E0 01 00 00 14 CC 00 00
  can0  292   [8]  A0 01 00 00 CA CB 00 00
  can0  293   [8]  A0 01 00 00 FC CB 00 00
  can0  294   [8]  A0 01 00 00 5A CC 00 00
  can0  295   [8]  E0 01 00 00 E2 CB 00 00
  can0  297   [8]  C0 01 00 00 84 CB 00 00
  can0  702   [1]  05
  can0  704   [1]  05
  can0  703   [1]  05
  can0  582   [8]  43 18 10 04 B7 0C 00 00
  can0  602   [8]  E0 02 00 02 00 00 00 00
  can0  582   [8]  E0 02 00 02 00 00 00 00
  can0  602   [8]  40 02 60 01 00 00 00 00
  can0  707   [1]  05
  can0  705   [1]  05
  can0  706   [1]  05
  can0  080   [0] 
  can0  292   [8]  C0 01 00 00 CA CB 00 00
  can0  293   [8]  A0 01 00 00 FC CB 00 00
  can0  294   [8]  C0 01 00 00 5A CC 00 00
  can0  295   [8]  E0 01 00 00 E2 CB 00 00
  can0  296   [8]  E0 01 00 00 14 CC 00 00
  can0  297   [8]  C0 01 00 00 84 CB 00 00
  can0  702   [1]  05
  can0  704   [1]  05
  can0  703   [1]  05
  can0  707   [1]  05
  can0  705   [1]  05
  can0  706   [1]  05
  can0  192   [8]  C0 80 62 19 64 19 06 26
  can0  080   [0] 
  can0  296   [8]  E0 01 00 00 14 CC 00 00
  can0  292   [8]  A0 01 00 00 CA CB 00 00
  can0  293   [8]  A0 01 00 00 FC CB 00 00
  can0  294   [8]  A0 01 00 00 5A CC 00 00
  can0  295   [8]  E0 01 00 00 E2 CB 00 00
  can0  297   [8]  C0 01 00 00 84 CB 00 00
  can0  393   [8]  13 B0 09 00 19 01 37 0D
  can0  702   [1]  05
  can0  704   [1]  05
  can0  703   [1]  05
  can0  707   [1]  05
  can0  705   [1]  05
  can0  706   [1]  05
  can0  080   [0] 
  can0  296   [8]  E0 01 00 00 14 CC 00 00
  can0  292   [8]  C0 01 00 00 CA CB 00 00
  can0  293   [8]  A0 01 00 00 FC CB 00 00
  can0  294   [8]  A0 01 00 00 42 CC 00 00
  can0  295   [8]  C0 01 00 00 E2 CB 00 00
  can0  297   [8]  C0 01 00 00 84 CB 00 00
  can0  7E5   [8]  4C 00 00 00 00 00 00 00
  can0  702   [1]  05
  can0  704   [1]  05
  can0  703   [1]  05
  can0  707   [1]  05
  can0  705   [1]  05
  can0  706   [1]  05
  can0  582   [8]  4B 02 60 01 C0 80 00 00
  can0  602   [8]  E0 02 00 02 00 00 00 00
  can0  582   [8]  E0 02 00 02 00 00 00 00
  can0  080   [0] 
  can0  294   [8]  A0 01 00 00 42 CC 00 00
  can0  292   [8]  A0 01 00 00 CA CB 00 00
  can0  293   [8]  80 01 00 00 FC CB 00 00
  can0  295   [8]  E0 01 00 00 CA CB 00 00
  can0  296   [8]  00 02 00 00 14 CC 00 00
  can0  297   [8]  C0 01 00 00 84 CB 00 00
  can0  602   [8]  40 01 20 00 00 00 00 00
  can0  702   [1]  05
  can0  704   [1]  05
  can0  703   [1]  05
  can0  181   [8]  00 80 10 27 10 27 10 27
  can0  281   [8]  00 00 00 00 00 00 00 00
  can0  707   [1]  05
  can0  705   [1]  05
  can0  706   [1]  05
  can0  080   [0] 
  can0  293   [8]  A0 01 00 00 FC CB 00 00
  can0  292   [8]  80 01 00 00 CA CB 00 00
  can0  294   [8]  C0 01 00 00 42 CC 00 00
  can0  295   [8]  E0 01 00 00 CA CB 00 00
  can0  296   [8]  00 02 00 00 14 CC 00 00
  can0  297   [8]  C0 01 00 00 84 CB 00 00
  can0  396   [8]  93 C8 0A 00 18 01 54 0D
  can0  702   [1]  05
  can0  704   [1]  05
  can0  703   [1]  05
  can0  707   [1]  05
  can0  705   [1]  05
  can0  706   [1]  05
  can0  080   [0] 
  can0  292   [8]  C0 01 00 00 CA CB 00 00
  can0  293   [8]  A0 01 00 00 E2 CB 00 00
  can0  294   [8]  C0 01 00 00 42 CC 00 00
  can0  295   [8]  C0 01 00 00 CA CB 00 00
  can0  296   [8]  E0 01 00 00 14 CC 00 00
  can0  297   [8]  C0 01 00 00 84 CB 00 00
  can0  702   [1]  05
  can0  704   [1]  05
  can0  703   [1]  05
  can0  707   [1]  05
  can0  194   [8]  C0 80 62 19 64 19 06 26
  can0  705   [1]  05
  can0  706   [1]  05
  can0  080   [0] 
  can0  296   [8]  00 02 00 00 14 CC 00 00
  can0  292   [8]  A0 01 00 00 CA CB 00 00
  can0  293   [8]  80 01 00 00 E2 CB 00 00
  can0  294   [8]  A0 01 00 00 42 CC 00 00
  can0  295   [8]  E0 01 00 00 CA CB 00 00
  can0  297   [8]  C0 01 00 00 84 CB 00 00
  can0  702   [1]  05
  can0  704   [1]  05
  can0  703   [1]  05
  can0  582   [8]  4F 01 20 00 10 00 00 00
  can0  602   [8]  E0 02 00 02 00 00 00 00
  can0  582   [8]  E0 02 00 02 00 00 00 00
  can0  197   [8]  C0 80 62 19 64 19 06 26
  can0  707   [1]  05
  can0  602   [8]  40 3E 60 01 00 00 00 00
  can0  705   [1]  05
  can0  706   [1]  05
  can0  080   [0] 
  can0  296   [8]  E0 01 00 00 14 CC 00 00
  can0  292   [8]  A0 01 00 00 CA CB 00 00
  can0  293   [8]  A0 01 00 00 E2 CB 00 00
  can0  294   [8]  C0 01 00 00 5A CC 00 00
  can0  295   [8]  E0 01 00 00 CA CB 00 00
  can0  297   [8]  C0 01 00 00 84 CB 00 00
  can0  702   [1]  05
  can0  704   [1]  05
  can0  703   [1]  05
  can0  195   [8]  C0 80 62 19 64 19 06 26
  can0  707   [1]  05
  can0  705   [1]  05
  can0  706   [1]  05
  can0  080   [0] 
  can0  297   [8]  C0 01 00 00 9C CB 00 00
  can0  292   [8]  A0 01 00 00 B4 CB 00 00
  can0  293   [8]  80 01 00 00 E2 CB 00 00
  can0  294   [8]  A0 01 00 00 5A CC 00 00
  can0  295   [8]  E0 01 00 00 E2 CB 00 00
  can0  296   [8]  C0 01 00 00 14 CC 00 00
  can0  702   [1]  05
  can0  704   [1]  05
  can0  703   [1]  05
  can0  193   [8]  C0 80 62 19 64 19 06 26
  can0  196   [8]  C0 80 62 19 64 19 06 26
  can0  707   [1]  05
  can0  705   [1]  05
  can0  706   [1]  05
  can0  080   [0] 
  can0  293   [8]  80 01 00 00 E2 CB 00 00
  can0  292   [8]  80 01 00 00 B4 CB 00 00
  can0  294   [8]  A0 01 00 00 5A CC 00 00
  can0  295   [8]  E0 01 00 00 E2 CB 00 00
  can0  296   [8]  C0 01 00 00 14 CC 00 00
  can0  297   [8]  C0 01 00 00 9C CB 00 00
  can0  702   [1]  05
  can0  704   [1]  05
  can0  703   [1]  05
  can0  707   [1]  05
  can0  705   [1]  05
  can0  706   [1]  05
  can0  080   [0] 
  can0  297   [8]  C0 01 00 00 9C CB 00 00
  can0  292   [8]  A0 01 00 00 B4 CB 00 00
  can0  293   [8]  A0 01 00 00 FC CB 00 00
  can0  294   [8]  80 01 00 00 5A CC 00 00
  can0  295   [8]  E0 01 00 00 E2 CB 00 00
  can0  296   [8]  00 02 00 00 14 CC 00 00
  can0  582   [8]  43 3E 60 01 F8 FF FF FF
  can0  702   [1]  05
  can0  704   [1]  05
  can0  703   [1]  05
  can0  602   [8]  E0 02 00 02 00 00 00 00
  can0  582   [8]  E0 02 00 02 00 00 00 00
  can0  602   [8]  40 40 60 01 00 00 00 00
  can0  707   [1]  05
  can0  705   [1]  05
  can0  706   [1]  05
  can0  192   [8]  C0 80 62 19 64 19 06 26
  can0  080   [0] 
  can0  293   [8]  80 01 00 00 FC CB 00 00
  can0  292   [8]  A0 01 00 00 B4 CB 00 00
  can0  294   [8]  C0 01 00 00 5A CC 00 00
  can0  295   [8]  E0 01 00 00 E2 CB 00 00
  can0  296   [8]  E0 01 00 00 14 CC 00 00
  can0  297   [8]  C0 01 00 00 9C CB 00 00
  can0  702   [1]  05
  can0  704   [1]  05
  can0  703   [1]  05
  can0  707   [1]  05
  can0  705   [1]  05
  can0  706   [1]  05
  can0  080   [0] 
  can0  297   [8]  C0 01 00 00 9C CB 00 00
  can0  292   [8]  A0 01 00 00 B4 CB 00 00
  can0  293   [8]  A0 01 00 00 FC CB 00 00
  can0  294   [8]  A0 01 00 00 5A CC 00 00
  can0  295   [8]  C0 01 00 00 E2 CB 00 00
  can0  296   [8]  E0 01 00 00 14 CC 00 00
  can0  702   [1]  05
  can0  704   [1]  05
  can0  703   [1]  05
  can0  707   [1]  05
  can0  705   [1]  05
  can0  706   [1]  05
  can0  080   [0] 
  can0  297   [8]  C0 01 00 00 84 CB 00 00
  can0  292   [8]  A0 01 00 00 CA CB 00 00
  can0  293   [8]  80 01 00 00 FC CB 00 00
  can0  294   [8]  A0 01 00 00 5A CC 00 00
  can0  295   [8]  E0 01 00 00 E2 CB 00 00
  can0  296   [8]  C0 01 00 00 14 CC 00 00
  can0  702   [1]  05
  can0  704   [1]  05
  can0  703   [1]  05
  can0  181   [8]  00 80 10 27 10 27 10 27
  can0  281   [8]  00 00 00 00 00 00 00 00
  can0  707   [1]  05
  can0  582   [8]  43 40 60 01 A4 CD 00 00
  can0  602   [8]  E0 02 00 02 00 00 00 00
  can0  582   [8]  E0 02 00 02 00 00 00 00
  can0  602   [8]  40 39 60 01 00 00 00 00
  can0  705   [1]  05
  can0  706   [1]  05
  can0  080   [0] 
  can0  296   [8]  E0 01 00 00 14 CC 00 00
  can0  292   [8]  80 01 00 00 CA CB 00 00
  can0  293   [8]  80 01 00 00 FC CB 00 00
  can0  294   [8]  A0 01 00 00 5A CC 00 00
  can0  295   [8]  E0 01 00 00 E2 CB 00 00
  can0  297   [8]  C0 01 00 00 84 CB 00 00
  can0  702   [1]  05
  can0  704   [1]  05
  can0  703   [1]  05
  can0  707   [1]  05
  can0  705   [1]  05
  can0  706   [1]  05
  can0  080   [0] 
  can0  292   [8]  A0 01 00 00 CA CB 00 00
  can0  293   [8]  80 01 00 00 FC CB 00 00
  can0  294   [8]  80 01 00 00 5A CC 00 00
  can0  295   [8]  E0 01 00 00 E2 CB 00 00
  can0  296   [8]  E0 01 00 00 14 CC 00 00
  can0  297   [8]  C0 01 00 00 84 CB 00 00
  can0  702   [1]  05
  can0  704   [1]  05
  can0  703   [1]  05
  can0  707   [1]  05
  can0  194   [8]  C0 80 62 19 64 19 06 26
  can0  705   [1]  05
  can0  706   [1]  05
  can0  080   [0] 
  can0  294   [8]  A0 01 00 00 5A CC 00 00
  can0  292   [8]  A0 01 00 00 CA CB 00 00
  can0  293   [8]  80 01 00 00 FC CB 00 00
  can0  295   [8]  E0 01 00 00 E2 CB 00 00
  can0  296   [8]  00 02 00 00 14 CC 00 00
  can0  297   [8]  C0 01 00 00 84 CB 00 00
  can0  702   [1]  05
  can0  704   [1]  05
  can0  703   [1]  05
  can0  197   [8]  C0 80 62 19 64 19 06 26
  can0  707   [1]  05
  can0  705   [1]  05
  can0  706   [1]  05
  can0  080   [0] 
  can0  295   [8]  00 02 00 00 E2 CB 00 00
  can0  292   [8]  80 01 00 00 CA CB 00 00
  can0  293   [8]  A0 01 00 00 FC CB 00 00
  can0  294   [8]  80 01 00 00 42 CC 00 00
  can0  296   [8]  C0 01 00 00 14 CC 00 00
  can0  297   [8]  A0 01 00 00 84 CB 00 00
  can0  702   [1]  05
  can0  704   [1]  05
  can0  703   [1]  05
  can0  195   [8]  C0 80 62 19 64 19 06 26
  can0  582   [8]  43 39 60 01 B8 CD 00 00
  can0  602   [8]  E0 02 00 02 00 00 00 00
  can0  582   [8]  E0 02 00 02 00 00 00 00
  can0  602   [8]  40 42 60 01 00 00 00 00
  can0  707   [1]  05
  can0  705   [1]  05
  can0  706   [1]  05
  can0  080   [0] 
  can0  293   [8]  A0 01 00 00 FC CB 00 00
  can0  292   [8]  A0 01 00 00 B4 CB 00 00
  can0  294   [8]  C0 01 00 00 42 CC 00 00
  can0  295   [8]  E0 01 00 00 CA CB 00 00
  can0  296   [8]  C0 01 00 00 14 CC 00 00
  can0  297   [8]  C0 01 00 00 84 CB 00 00
  can0  702   [1]  05
  can0  704   [1]  05
  can0  703   [1]  05
  can0  193   [8]  C0 80 62 19 64 19 06 26
  can0  196   [8]  C0 80 62 19 64 19 06 26
  can0  707   [1]  05
  can0  705   [1]  05
  can0  706   [1]  05
  can0  080   [0] 
  can0  295   [8]  E0 01 00 00 CA CB 00 00
  can0  292   [8]  A0 01 00 00 B4 CB 00 00
  can0  293   [8]  80 01 00 00 FC CB 00 00
  can0  294   [8]  C0 01 00 00 42 CC 00 00
  can0  296   [8]  C0 01 00 00 14 CC 00 00
  can0  297   [8]  C0 01 00 00 84 CB 00 00
  can0  702   [1]  05
  can0  704   [1]  05
  can0  703   [1]  05
  can0  707   [1]  05
  can0  705   [1]  05
  can0  706   [1]  05
  can0  080   [0] 
  can0  297   [8]  C0 01 00 00 84 CB 00 00
  can0  292   [8]  C0 01 00 00 B4 CB 00 00
  can0  293   [8]  80 01 00 00 FC CB 00 00
  can0  294   [8]  A0 01 00 00 42 CC 00 00
  can0  295   [8]  E0 01 00 00 CA CB 00 00
  can0  296   [8]  E0 01 00 00 14 CC 00 00
  can0  702   [1]  05
  can0  704   [1]  05
  can0  703   [1]  05
  can0  707   [1]  05
  can0  705   [1]  05
  can0  706   [1]  05
  can0  192   [8]  C0 80 62 19 64 19 06 26
  can0  582   [8]  4B 42 60 01 60 01 00 00
  can0  080   [0] 
  can0  295   [8]  E0 01 00 00 CA CB 00 00
  can0  292   [8]  80 01 00 00 B4 CB 00 00
  can0  293   [8]  80 01 00 00 FC CB 00 00
  can0  294   [8]  A0 01 00 00 42 CC 00 00
  can0  296   [8]  C0 01 00 00 14 CC 00 00
  can0  297   [8]  C0 01 00 00 84 CB 00 00
  can0  702   [1]  05
  can0  602   [8]  E0 02 00 02 00 00 00 00
  can0  582   [8]  E0 02 00 02 00 00 00 00
  can0  704   [1]  05
  can0  703   [1]  05
  can0  602   [8]  40 05 61 01 00 00 00 00
  can0  707   [1]  05
  can0  705   [1]  05
  can0  706   [1]  05
  can0  080   [0] 
  can0  296   [8]  E0 01 00 00 14 CC 00 00
  can0  292   [8]  A0 01 00 00 B4 CB 00 00
  can0  293   [8]  80 01 00 00 FC CB 00 00
  can0  294   [8]  80 01 00 00 42 CC 00 00
  can0  295   [8]  E0 01 00 00 CA CB 00 00
  can0  297   [8]  C0 01 00 00 84 CB 00 00
  can0  702   [1]  05
  can0  704   [1]  05
  can0  703   [1]  05
  can0  707   [1]  05
  can0  705   [1]  05
  can0  706   [1]  05
  can0  080   [0] 
  can0  292   [8]  A0 01 00 00 CA CB 00 00
  can0  293   [8]  A0 01 00 00 FC CB 00 00
  can0  294   [8]  A0 01 00 00 42 CC 00 00
  can0  295   [8]  E0 01 00 00 CA CB 00 00
  can0  296   [8]  E0 01 00 00 14 CC 00 00
  can0  297   [8]  C0 01 00 00 84 CB 00 00
  can0  702   [1]  05
  can0  704   [1]  05
  can0  703   [1]  05
  can0  181   [8]  00 80 10 27 10 27 10 27
  can0  281   [8]  00 00 00 00 00 00 00 00
  can0  707   [1]  05
  can0  705   [1]  05
  can0  706   [1]  05
  can0  080   [0] 
  can0  294   [8]  A0 01 00 00 42 CC 00 00
  can0  292   [8]  80 01 00 00 CA CB 00 00
  can0  293   [8]  A0 01 00 00 FC CB 00 00
  can0  295   [8]  C0 01 00 00 CA CB 00 00
  can0  296   [8]  C0 01 00 00 14 CC 00 00
  can0  297   [8]  C0 01 00 00 84 CB 00 00
  can0  702   [1]  05
  can0  704   [1]  05
  can0  703   [1]  05
  can0  582   [8]  4B 05 61 01 11 01 00 00
  can0  602   [8]  E0 02 00 02 00 00 00 00
  can0  582   [8]  E0 02 00 02 00 00 00 00
  can0  707   [1]  05
  can0  602   [8]  40 64 61 01 00 00 00 00
  can0  705   [1]  05
  can0  706   [1]  05
  can0  080   [0] 
  can0  295   [8]  E0 01 00 00 CA CB 00 00
  can0  292   [8]  80 01 00 00 CA CB 00 00
  can0  293   [8]  80 01 00 00 E2 CB 00 00
  can0  294   [8]  C0 01 00 00 42 CC 00 00
  can0  296   [8]  E0 01 00 00 FC CB 00 00
  can0  297   [8]  C0 01 00 00 84 CB 00 00
  can0  702   [1]  05
  can0  704   [1]  05
  can0  703   [1]  05
  can0  707   [1]  05
  can0  194   [8]  C0 80 62 19 64 19 06 26
  can0  705   [1]  05
  can0  706   [1]  05
  can0  080   [0] 
  can0  294   [8]  C0 01 00 00 42 CC 00 00
  can0  292   [8]  A0 01 00 00 CA CB 00 00
  can0  293   [8]  A0 01 00 00 E2 CB 00 00
  can0  295   [8]  C0 01 00 00 CA CB 00 00
  can0  296   [8]  E0 01 00 00 FC CB 00 00
  can0  297   [8]  C0 01 00 00 84 CB 00 00
  can0  702   [1]  05
  can0  704   [1]  05
  can0  703   [1]  05
  can0  197   [8]  C0 80 62 19 64 19 06 26
  can0  707   [1]  05
  can0  705   [1]  05
  can0  706   [1]  05
  can0  080   [0] 
  can0  296   [8]  C0 01 00 00 FC CB 00 00
  can0  292   [8]  80 01 00 00 CA CB 00 00
  can0  293   [8]  80 01 00 00 E2 CB 00 00
  can0  294   [8]  C0 01 00 00 42 CC 00 00
  can0  295   [8]  E0 01 00 00 CA CB 00 00
  can0  297   [8]  C0 01 00 00 84 CB 00 00
  can0  702   [1]  05
  can0  704   [1]  05
  can0  703   [1]  05
  can0  195   [8]  C0 80 62 19 64 19 06 26
  can0  707   [1]  05
  can0  705   [1]  05
  can0  706   [1]  05
  can0  080   [0] 
  can0  296   [8]  C0 01 00 00 FC CB 00 00
  can0  292   [8]  80 01 00 00 B4 CB 00 00
  can0  293   [8]  A0 01 00 00 E2 CB 00 00
  can0  294   [8]  A0 01 00 00 42 CC 00 00
  can0  295   [8]  E0 01 00 00 E2 CB 00 00
  can0  297   [8]  C0 01 00 00 9C CB 00 00
  can0  582   [8]  4B 64 61 01 88 0C 00 00
  can0  702   [1]  05
  can0  602   [8]  E0 02 00 02 00 00 00 00
  can0  582   [8]  E0 02 00 02 00 00 00 00
  can0  704   [1]  05
  can0  703   [1]  05
  can0  602   [8]  40 76 61 01 00 00 00 00
  can0  193   [8]  C0 80 62 19 64 19 06 26
  can0  196   [8]  C0 80 62 19 64 19 06 26
  can0  707   [1]  05
  can0  705   [1]  05
  can0  706   [1]  05
  can0  080   [0] 
  can0  292   [8]  80 01 00 00 B4 CB 00 00
  can0  293   [8]  A0 01 00 00 E2 CB 00 00
  can0  294   [8]  C0 01 00 00 42 CC 00 00
  can0  295   [8]  E0 01 00 00 E2 CB 00 00
  can0  296   [8]  E0 01 00 00 FC CB 00 00
  can0  297   [8]  C0 01 00 00 9C CB 00 00
  can0  394   [8]  76 4D 09 00 0D 01 AC 0C
  can0  702   [1]  05
  can0  704   [1]  05
  can0  703   [1]  05
  can0  707   [1]  05
  can0  705   [1]  05
  can0  706   [1]  05
  can0  080   [0] 
  can0  294   [8]  C0 01 00 00 42 CC 00 00
  can0  292   [8]  A0 01 00 00 B4 CB 00 00
  can0  293   [8]  A0 01 00 00 E2 CB 00 00
  can0  295   [8]  E0 01 00 00 E2 CB 00 00
  can0  296   [8]  00 02 00 00 FC CB 00 00
  can0  297   [8]  C0 01 00 00 9C CB 00 00
  can0  702   [1]  05
  can0  704   [1]  05
  can0  703   [1]  05
  can0  707   [1]  05
  can0  705   [1]  05
  can0  706   [1]  05
  can0  192   [8]  C0 80 62 19 64 19 06 26
  can0  080   [0] 
  can0  296   [8]  00 02 00 00 FC CB 00 00
  can0  292   [8]  A0 01 00 00 B4 CB 00 00
  can0  293   [8]  A0 01 00 00 E2 CB 00 00
  can0  294   [8]  A0 01 00 00 42 CC 00 00
  can0  295   [8]  E0 01 00 00 E2 CB 00 00
  can0  297   [8]  C0 01 00 00 9C CB 00 00
  can0  702   [1]  05
  can0  704   [1]  05
  can0  703   [1]  05
  can0  707   [1]  05
  can0  582   [8]  4B 76 61 01 10 27 00 00
  can0  602   [8]  E0 02 00 02 00 00 00 00
  can0  582   [8]  E0 02 00 02 00 00 00 00
  can0  705   [1]  05
  can0  706   [1]  05
  can0  080   [0] 
  can0  295   [8]  E0 01 00 00 E2 CB 00 00
  can0  292   [8]  A0 01 00 00 B4 CB 00 00
  can0  293   [8]  80 01 00 00 E2 CB 00 00
  can0  294   [8]  80 01 00 00 42 CC 00 00
  can0  296   [8]  C0 01 00 00 FC CB 00 00
  can0  297   [8]  C0 01 00 00 9C CB 00 00
  can0  602   [8]  40 56 1F 01 00 00 00 00
  can0  397   [8]  2D 62 0A 00 19 01 22 0E
  can0  702   [1]  05
  can0  704   [1]  05
  can0  703   [1]  05
  can0  707   [1]  05
  can0  705   [1]  05
  can0  706   [1]  05
  can0  080   [0] 
  can0  293   [8]  A0 01 00 00 E2 CB 00 00
  can0  292   [8]  A0 01 00 00 CA CB 00 00
  can0  294   [8]  80 01 00 00 42 CC 00 00
  can0  295   [8]  E0 01 00 00 E2 CB 00 00
  can0  296   [8]  E0 01 00 00 FC CB 00 00
  can0  297   [8]  C0 01 00 00 84 CB 00 00
  can0  702   [1]  05
  can0  704   [1]  05
  can0  703   [1]  05
  can0  181   [8]  00 80 10 27 10 27 10 27
  can0  281   [8]  00 00 00 00 00 00 00 00
  can0  707   [1]  05
  can0  705   [1]  05
  can0  706   [1]  05
  can0  080   [0] 
  can0  296   [8]  00 02 00 00 FC CB 00 00
  can0  292   [8]  A0 01 00 00 CA CB 00 00
  can0  293   [8]  80 01 00 00 E2 CB 00 00
  can0  294   [8]  C0 01 00 00 42 CC 00 00
  can0  295   [8]  E0 01 00 00 E2 CB 00 00
  can0  297   [8]  C0 01 00 00 84 CB 00 00
  can0  702   [1]  05
  can0  704   [1]  05
  can0  703   [1]  05
  can0  707   [1]  05
  can0  705   [1]  05
  can0  706   [1]  05
  can0  080   [0] 
  can0  292   [8]  A0 01 00 00 CA CB 00 00
  can0  293   [8]  A0 01 00 00 E2 CB 00 00
  can0  294   [8]  A0 01 00 00 42 CC 00 00
  can0  295   [8]  E0 01 00 00 E2 CB 00 00
  can0  296   [8]  E0 01 00 00 14 CC 00 00
  can0  297   [8]  C0 01 00 00 84 CB 00 00
  can0  702   [1]  05
  can0  704   [1]  05
  can0  703   [1]  05
  can0  582   [8]  43 56 1F 01 E6 4F 00 00
  can0  602   [8]  E0 02 00 02 00 00 00 00
  can0  582   [8]  E0 02 00 02 00 00 00 00
  can0  602   [8]  40 56 1F 02 00 00 00 00
  can0  707   [1]  05
  can0  194   [8]  C0 80 62 19 64 19 06 26
  can0  705   [1]  05
  can0  706   [1]  05
  can0  080   [0] 
  can0  296   [8]  00 02 00 00 14 CC 00 00
  can0  292   [8]  A0 01 00 00 CA CB 00 00
  can0  293   [8]  80 01 00 00 E2 CB 00 00
  can0  294   [8]  C0 01 00 00 42 CC 00 00
  can0  295   [8]  E0 01 00 00 E2 CB 00 00
  can0  297   [8]  C0 01 00 00 84 CB 00 00
  can0  702   [1]  05
  can0  704   [1]  05
  can0  703   [1]  05
  can0  197   [8]  C0 80 62 19 64 19 06 26
  can0  707   [1]  05
  can0  705   [1]  05
  can0  706   [1]  05
  can0  080   [0] 
  can0  296   [8]  00 02 00 00 14 CC 00 00
  can0  292   [8]  A0 01 00 00 CA CB 00 00
  can0  293   [8]  80 01 00 00 E2 CB 00 00
  can0  294   [8]  A0 01 00 00 42 CC 00 00
  can0  295   [8]  E0 01 00 00 E2 CB 00 00
  can0  297   [8]  C0 01 00 00 84 CB 00 00
  can0  702   [1]  05
  can0  704   [1]  05
  can0  703   [1]  05
  can0  195   [8]  C0 80 62 19 64 19 06 26
  can0  707   [1]  05
  can0  705   [1]  05
  can0  706   [1]  05
  can0  080   [0] 
  can0  297   [8]  C0 01 00 00 6A CB 00 00
  can0  292   [8]  A0 01 00 00 B4 CB 00 00
  can0  293   [8]  80 01 00 00 E2 CB 00 00
  can0  294   [8]  C0 01 00 00 42 CC 00 00
  can0  295   [8]  C0 01 00 00 E2 CB 00 00
  can0  296   [8]  C0 01 00 00 14 CC 00 00
  can0  702   [1]  05
  can0  704   [1]  05
  can0  703   [1]  05
  can0  193   [8]  C0 80 62 19 64 19 06 26
  can0  196   [8]  C0 80 62 19 64 19 06 26
  can0  707   [1]  05
  can0  705   [1]  05
  can0  706   [1]  05
  can0  582   [8]  43 56 1F 02 4E 87 00 00
  can0  602   [8]  40 00 10 00 00 00 00 00
  can0  582   [8]  43 00 10 00 C6 01 00 07
  can0  080   [0] 
  can0  293   [8]  80 01 00 00 E2 CB 00 00
  can0  292   [8]  00 02 00 00 B4 CB 00 00
  can0  294   [8]  C0 01 00 00 42 CC 00 00
  can0  295   [8]  E0 01 00 00 E2 CB 00 00
  can0  296   [8]  00 02 00 00 14 CC 00 00
  can0  297   [8]  C0 01 00 00 6A CB 00 00
  can0  702   [1]  05
  can0  704   [1]  05
  can0  703   [1]  05
  can0  707   [1]  05
  can0  705   [1]  05
  can0  706   [1]  05
  can0  080   [0] 
  can0  292   [8]  A0 01 00 00 B4 CB 00 00
  can0  293   [8]  A0 01 00 00 FC CB 00 00
  can0  294   [8]  A0 01 00 00 42 CC 00 00
  can0  295   [8]  C0 01 00 00 E2 CB 00 00
  can0  296   [8]  E0 01 00 00 14 CC 00 00
  can0  297   [8]  C0 01 00 00 6A CB 00 00
  can0  702   [1]  05
  can0  704   [1]  05
  can0  703   [1]  05
  can0  707   [1]  05
  can0  705   [1]  05
  can0  706   [1]  05
  can0  192   [8]  C0 80 62 19 64 19 06 26
  can0  080   [0] 
  can0  293   [8]  80 01 00 00 FC CB 00 00
  can0  292   [8]  C0 01 00 00 B4 CB 00 00
  can0  294   [8]  A0 01 00 00 42 CC 00 00
  can0  295   [8]  E0 01 00 00 E2 CB 00 00
  can0  296   [8]  C0 01 00 00 14 CC 00 00
  can0  297   [8]  C0 01 00 00 6A CB 00 00
  can0  702   [1]  05
  can0  704   [1]  05
  can0  703   [1]  05
  can0  707   [1]  05
  can0  705   [1]  05
  can0  706   [1]  05
  can0  080   [0] 
  can0  296   [8]  E0 01 00 00 14 CC 00 00
  can0  292   [8]  A0 01 00 00 B4 CB 00 00
  can0  293   [8]  A0 01 00 00 FC CB 00 00
  can0  294   [8]  A0 01 00 00 5A CC 00 00
  can0  295   [8]  E0 01 00 00 E2 CB 00 00
  can0  297   [8]  C0 01 00 00 6A CB 00 00
  can0  702   [1]  05
  can0  704   [1]  05
  can0  703   [1]  05
  can0  707   [1]  05
  can0  705   [1]  05
  can0  706   [1]  05
  can0  080   [0] 
  can0  292   [8]  A0 01 00 00 CA CB 00 00
  can0  293   [8]  A0 01 00 00 FC CB 00 00
  can0  294   [8]  C0 01 00 00 5A CC 00 00
  can0  295   [8]  C0 01 00 00 E2 CB 00 00
  can0  296   [8]  C0 01 00 00 14 CC 00 00
  can0  297   [8]  C0 01 00 00 84 CB 00 00
  can0  702   [1]  05
  can0  704   [1]  05
  can0  703   [1]  05
  can0  181   [8]  00 80 10 27 10 27 10 27
  can0  281   [8]  00 00 00 00 00 00 00 00
  can0  707   [1]  05
  can0  705   [1]  05
  can0  706   [1]  05
  can0  080   [0] 
  can0  293   [8]  A0 01 00 00 FC CB 00 00
  can0  292   [8]  80 01 00 00 CA CB 00 00
  can0  294   [8]  C0 01 00 00 5A CC 00 00
  can0  295   [8]  E0 01 00 00 E2 CB 00 00
  can0  296   [8]  C0 01 00 00 14 CC 00 00
  can0  297   [8]  C0 01 00 00 84 CB 00 00
  can0  702   [1]  05
  can0  704   [1]  05
  can0  703   [1]  05
  can0  707   [1]  05
  can0  705   [1]  05
  can0  706   [1]  05
  can0  080   [0] 
  can0  297   [8]  C0 01 00 00 84 CB 00 00
  can0  292   [8]  80 01 00 00 CA CB 00 00
  can0  293   [8]  A0 01 00 00 E2 CB 00 00
  can0  294   [8]  A0 01 00 00 5A CC 00 00
  can0  295   [8]  E0 01 00 00 E2 CB 00 00
  can0  296   [8]  00 02 00 00 14 CC 00 00
  can0  702   [1]  05
  can0  704   [1]  05
  can0  703   [1]  05
  can0  707   [1]  05
  can0  194   [8]  C0 80 62 19 64 19 06 26
  can0  705   [1]  05
  can0  706   [1]  05
  can0  080   [0] 
  can0  295   [8]  C0 01 00 00 E2 CB 00 00
  can0  292   [8]  80 01 00 00 CA CB 00 00
  can0  293   [8]  80 01 00 00 E2 CB 00 00
  can0  294   [8]  A0 01 00 00 5A CC 00 00
  can0  296   [8]  C0 01 00 00 14 CC 00 00
  can0  297   [8]  C0 01 00 00 84 CB 00 00
  can0  702   [1]  05
  can0  704   [1]  05
  can0  703   [1]  05
  can0  197   [8]  C0 80 62 19 64 19 06 26
  can0  707   [1]  05
  can0  705   [1]  05
  can0  706   [1]  05
  can0  080   [0] 
  can0  296   [8]  C0 01 00 00 14 CC 00 00
  can0  292   [8]  A0 01 00 00 CA CB 00 00
  can0  293   [8]  80 01 00 00 E2 CB 00 00
  can0  294   [8]  A0 01 00 00 42 CC 00 00
  can0  295   [8]  E0 01 00 00 E2 CB 00 00
  can0  297   [8]  C0 01 00 00 84 CB 00 00
  can0  702   [1]  05
  can0  704   [1]  05
  can0  703   [1]  05
  can0  195   [8]  C0 80 62 19 64 19 06 26
  can0  707   [1]  05
  can0  705   [1]  05
  can0  706   [1]  05
  can0  080   [0] 
  can0  297   [8]  C0 01 00 00 84 CB 00 00
  can0  292   [8]  80 01 00 00 CA CB 00 00
  can0  293   [8]  80 01 00 00 E2 CB 00 00
  can0  294   [8]  80 01 00 00 42 CC 00 00
  can0  295   [8]  E0 01 00 00 E2 CB 00 00
  can0  296   [8]  00 02 00 00 14 CC 00 00
  can0  702   [1]  05
  can0  704   [1]  05
  can0  703   [1]  05
  can0  193   [8]  C0 80 62 19 64 19 06 26
  can0  196   [8]  C0 80 62 19 64 19 06 26
  can0  707   [1]  05
  can0  705   [1]  05
  can0  706   [1]  05
  can0  080   [0] 
  can0  293   [8]  A0 01 00 00 E2 CB 00 00
